(1496624504.928704) can0 078#5529801000000000
(1496624504.928736) can0 422#0000008E3C12FF00
(1496624504.928746) can0 423#ABA0000000000000
(1496624504.928754) can0 430#37015834C8797700
(1496624504.928763) can0 167#72804009FFE00000
(1496624504.928771) can0 165#20C34B0010000000
(1496624504.928779) can0 200#02968000806A0B0A
(1496624504.928788) can0 076#3E38C08000000000
(1496624504.928796) can0 077#000008017FF7E9FD
(1496624504.928804) can0 07D#002ACD8017BFEFFE
(1496624504.928813) can0 082#7E089408A9804000
(1496624504.928947) can0 085#7C32800051607C7E
(1496624504.929196) can0 091#FFFE7F03BDC03000
(1496624504.929445) can0 092#6FAE6F8C0FA032C0
(1496624504.929696) can0 202#0CF15A7262EE0000
(1496624504.929965) can0 204#EC007D0242F11215
(1496624504.930195) can0 213#FFFF08040001FF40
(1496624504.930445) can0 214#8000000000007780
(1496624504.930694) can0 216#C01F981282000325
(1496624504.930944) can0 217#0000000000000000
(1496624504.931195) can0 230#0002000000000000
(1496624504.931450) can0 25C#01ED06522418825C
(1496624504.931576) can0 3CC#8000000000000000
(1496624504.931945) can0 415#001DF4D20FFF0FFF
(1496624504.932070) can0 4B0#A3000000800150CD
(1496624504.934700) can0 186#140401F400ED0400
(1496624504.934822) can0 187#E014080000300000
(1496624504.937696) can0 047#2000000000000000
(1496624504.937707) can0 167#72804009FFE00000
(1496624504.937716) can0 202#0CF0627262EE0000
(1496624504.937724) can0 204#F0007D0242F01215
(1496624504.937945) can0 217#0000000000000000
(1496624504.938196) can0 25C#01F4064D2418825C
(1496624504.939822) can0 085#7C32800051707C7D
(1496624504.939832) can0 091#FFFE7F03BCC13000
(1496624504.939841) can0 092#6FA86F880FA03BC1
(1496624504.939849) can0 3A8#E000A6D500000000
(1496624504.941207) can0 3CA#FF80080000000000
(1496624504.942577) can0 078#0028001000000000
(1496624504.947827) can0 167#72804009FFE00000
(1496624504.947844) can0 165#20C34B0010000000
(1496624504.947952) can0 076#3E3AC08000000000
(1496624504.948199) can0 077#000008017FF7F1FD
(1496624504.948448) can0 07D#002ACC9017BFEFFE
(1496624504.948639) can0 200#02968000806A0D08
(1496624504.948827) can0 082#7E08940CA9804000
(1496624504.949074) can0 085#7C3380004F807C7D
(1496624504.949326) can0 091#FFFE7F02BCC23000
(1496624504.949573) can0 092#6FB06F850FA035C2
(1496624504.949823) can0 202#0CEF6A7264EE0000
(1496624504.950074) can0 204#F4007D0242EF120A
(1496624504.950324) can0 213#FFFF08040001FF40
(1496624504.950572) can0 214#8000000000007690
(1496624504.950824) can0 216#C021981282000446
(1496624504.951076) can0 217#0000000000000000
(1496624504.951323) can0 230#0002000000000000
(1496624504.951572) can0 415#001DF8D10FFF0FFF
(1496624504.951702) can0 4B0#A3000000900150CC
(1496624504.953074) can0 25C#01FC06522418825C
(1496624504.955700) can0 186#140401F400ED0400
(1496624504.955828) can0 187#E014080000300000
(1496624504.955845) can0 242#00EB200DE8000001
(1496624504.955952) can0 3B3#4048001210050002
(1496624504.957326) can0 047#2000000000000000
(1496624504.957455) can0 167#72804109FFE00000
(1496624504.957471) can0 202#0CEE727264EE0000
(1496624504.957577) can0 204#F8007D0242EE1205
(1496624504.958956) can0 217#0000000000000000
(1496624504.959206) can0 25C#01F6064D2418825C
(1496624504.959223) can0 085#7C3480004C907C7E
(1496624504.959238) can0 3CC#8000000000000000
(1496624504.959248) can0 091#FFFE7F03BAC33000
(1496624504.959329) can0 092#6FA56F860FA03EC3
(1496624504.960829) can0 3A8#E000A6D500000000
(1496624504.962329) can0 078#0128801000000000
(1496624504.964957) can0 42C#8800000054A00000
(1496624504.967706) can0 167#72804009FFE00000
(1496624504.967723) can0 165#20C34B0010000000
(1496624504.967958) can0 076#3E3BC08000000000
(1496624504.968208) can0 077#000008017FF7F5FE
(1496624504.968456) can0 07D#002ACBA017BFEFFE
(1496624504.968588) can0 200#02968000806A0F06
(1496624504.968830) can0 082#7E08940CA9804000
(1496624504.969204) can0 04A#0200001800000000
(1496624504.969333) can0 04B#000018D8C018C000
(1496624504.969581) can0 04C#206BBF0000000000
(1496624504.969830) can0 085#7C3480004CA07C7D
(1496624504.970080) can0 091#FFFE7F03B9C43000
(1496624504.970331) can0 092#6FA56F850FA03EC4
(1496624504.970580) can0 202#0CED7A7266EE0000
(1496624504.970830) can0 204#FC007D0241ED1205
(1496624504.971081) can0 213#FFFF08040001FF40
(1496624504.971331) can0 214#80000000000075A0
(1496624504.971581) can0 216#C021981282000547
(1496624504.971830) can0 217#0000000000000000
(1496624504.972081) can0 230#0002000000000000
(1496624504.972331) can0 25C#01EE06502418825C
(1496624504.972581) can0 083#0020000000000000
(1496624504.972830) can0 3A7#00400A0C5F000000
(1496624504.972958) can0 2A1#FFFFFFFF00000000
(1496624504.973206) can0 3CA#FF80080000000000
(1496624504.973456) can0 415#001CFCD10FFF0FFF
(1496624504.973706) can0 4B0#A3000000A00150CB
(1496624504.975206) can0 186#140401F400ED0400
(1496624504.975223) can0 187#E014080000300000
(1496624504.976583) can0 047#2000000000000000
(1496624504.977959) can0 167#72803E09FFE00000
(1496624504.977976) can0 202#0CFC027266EE0000
(1496624504.978081) can0 204#C0007D0241FC1205
(1496624504.978209) can0 217#0000000000000000
(1496624504.978334) can0 25C#01F4064F2418825C
(1496624504.978705) can0 085#7C3580004AB07C7D
(1496624504.978957) can0 455#0000000000000000
(1496624504.979207) can0 091#FFFE7EFFBDC53000
(1496624504.979459) can0 092#6FB26F8A0FA02BC5
(1496624504.979707) can0 3A8#E000A6D500000000
(1496624504.982333) can0 078#0128801000000000
(1496624504.983709) can0 3A6#00400A0C5F000000
(1496624504.985083) can0 3C3#400F000000004000
(1496624504.987711) can0 165#20C34B0010000000
(1496624504.987729) can0 167#72803D09FFE00000
(1496624504.987962) can0 200#02968000806A0114
(1496624504.988089) can0 076#3E3DC08000000000
(1496624504.988333) can0 077#000008017FF7E9FD
(1496624504.988590) can0 07D#002ACAB017BFEFFE
(1496624504.988833) can0 082#7E08940CA9804000
(1496624504.989083) can0 085#7C35800049C07C7D
(1496624504.989334) can0 091#FFFE7EFFBCC63000
(1496624504.989461) can0 092#6FA26F880FA03CC6
(1496624504.989708) can0 202#0CFB0A7266EE0000
(1496624504.989957) can0 204#C4007D0241FB1220
(1496624504.990208) can0 213#FFFF08040001FF40
(1496624504.990458) can0 214#80000000000074B0
(1496624504.990709) can0 216#C021981282000639
(1496624504.990957) can0 217#0000000000000000
(1496624504.991208) can0 230#0002000000000000
(1496624504.991458) can0 25C#01F706532418825C
(1496624504.991709) can0 3CC#8000000000000000
(1496624504.991959) can0 415#001BC0E10FFF0FFF
(1496624504.992208) can0 416#9300FA0001000000
(1496624504.992457) can0 4B0#A3000000B00150CA
(1496624504.995084) can0 186#140401F400ED0400
(1496624504.995212) can0 187#E014080000300000
(1496624504.995228) can0 242#00EB200CE8000001
(1496624504.996587) can0 047#2000000000000000
(1496624504.998086) can0 167#72803F09FFE00000
(1496624504.998103) can0 202#0CFA127260EE0000
(1496624504.998113) can0 204#C8007D0241FA1220
(1496624504.998121) can0 217#0000000000000000
(1496624504.998208) can0 25C#01F7064D2418825C
(1496624504.999834) can0 085#7C36800047D07C7D
(1496624504.999851) can0 091#FFFE7F03B6C73000
(1496624504.999861) can0 092#6FB06F870FA02EC7
(1496624504.999870) can0 3A8#E000A6D500000000
(1496624505.001213) can0 3CA#FF80080000000000
(1496624505.002587) can0 078#0028001000000000
(1496624505.007961) can0 167#72804009FFE00000
(1496624505.007978) can0 165#20C34B0010000000
(1496624505.007988) can0 076#3E3EC08000000000
(1496624505.008212) can0 077#000008007FF7E5FF
(1496624505.008461) can0 07D#002AC9C0183FEFFE
(1496624505.008711) can0 082#7E08940CA9804000
(1496624505.008961) can0 085#7C37800044E07C7E
(1496624505.009087) can0 091#FFFE7F03B5C83000
(1496624505.009336) can0 092#6FAA6F890FA031C8
(1496624505.009585) can0 178#022102004E5DCE4D
(1496624505.009836) can0 213#FFFF08040001FF40
(1496624505.010085) can0 214#80000000000073C0
(1496624505.010336) can0 216#C021981282000738
(1496624505.010584) can0 217#0000000000000000
(1496624505.010834) can0 200#02968000806A0312
(1496624505.011085) can0 202#0CF91A7260EE0000
(1496624505.011342) can0 204#CC007D0241F91215
(1496624505.011466) can0 415#001BC4E00FFF0FFF
(1496624505.011785) can0 4B0#A3000000C00150C9
(1496624505.013089) can0 230#0002000000000000
(1496624505.013214) can0 25C#01F606532418825C
(1496624505.014589) can0 186#140401F400ED0400
(1496624505.014836) can0 187#E014080000300000
(1496624505.015088) can0 18A#0020180014000000
(1496624505.016587) can0 42C#8800000054A00000
(1496624505.016604) can0 047#2000000000000000
(1496624505.017964) can0 167#72803F09FFE00000
(1496624505.017981) can0 202#0CF8227262EE0000
(1496624505.018087) can0 204#D0007D0242F8121A
(1496624505.018097) can0 217#0000000000000000
(1496624505.018211) can0 25C#01F7064E2418825C
(1496624505.019591) can0 085#7C37800044F07C7D
(1496624505.019839) can0 3CC#8000000000000000
(1496624505.019856) can0 091#FFFE7F03B4C93000
(1496624505.019866) can0 092#6FAC6F870FA030C9
(1496624505.019960) can0 3A8#E000A6D500000000
(1496624505.022591) can0 078#5529801000000000
(1496624505.022713) can0 422#0000008E3C12FF00
(1496624505.022729) can0 423#ABA0000000000000
(1496624505.022738) can0 430#37015834C8797700
(1496624505.027841) can0 165#20C34B0010000000
(1496624505.027962) can0 167#72803E09FFE00000
(1496624505.027978) can0 200#02968000806A0510
(1496624505.028087) can0 076#3E3FC08000000000
(1496624505.028340) can0 077#000008017FF7EDFE
(1496624505.028595) can0 07D#002AC8D0183FEFFE
(1496624505.028838) can0 082#7E08940CA9804000
(1496624505.029087) can0 085#7C38800051007C7E
(1496624505.029341) can0 091#FFFE7EFCBBCA3000
(1496624505.029588) can0 092#6FB56F8C0FA021CA
(1496624505.029716) can0 202#0CF72A7262EE0000
(1496624505.029962) can0 204#D4007D0242F7121A
(1496624505.030214) can0 213#FFFF08040001FF40
(1496624505.030462) can0 214#80000000000072D0
(1496624505.030712) can0 216#C02199128200082D
(1496624505.030962) can0 217#0000000000000000
(1496624505.031213) can0 230#0002000000000000
(1496624505.031463) can0 25C#01FA06512418825C
(1496624505.031712) can0 3CA#FF80080000000000
(1496624505.031964) can0 415#001BC8DF0FFF0FFF
(1496624505.032213) can0 4B0#A3000000D00150C8
(1496624505.034840) can0 186#140401F400ED0400
(1496624505.034967) can0 187#DF14080000400000
(1496624505.034984) can0 242#00EB200AE8000001
(1496624505.037591) can0 047#2000000000000000
(1496624505.037963) can0 167#72803F09FFE00000
(1496624505.037980) can0 202#0CF6327262EE0000
(1496624505.037990) can0 204#D8007D0242F61220
(1496624505.037998) can0 217#0000000000000000
(1496624505.038341) can0 25C#01F7064D2418825C
(1496624505.038713) can0 085#7C38800051107C7D
(1496624505.040339) can0 091#FFFE7F02B3CB3000
(1496624505.040356) can0 092#6FA16F8C0FA034CB
(1496624505.040366) can0 3A8#E000A6D500000000
(1496624505.041717) can0 078#0128801000000000
(1496624505.046966) can0 167#72803F09FFE00000
(1496624505.047214) can0 165#20C34B0010000000
(1496624505.048840) can0 200#02968000806C070C
(1496624505.048857) can0 076#3E40C08000000000
(1496624505.048867) can0 077#000008007FF7F9FE
(1496624505.048876) can0 07D#002AC7E0183FEFFE
(1496624505.048885) can0 082#7E08940CA9804000
(1496624505.049091) can0 085#7C38800050207C7D
(1496624505.049215) can0 091#FFFE7EFFB6CC3000
(1496624505.049466) can0 092#6FB16F850FA02ACC
(1496624505.049716) can0 202#0CF53A7264EE0000
(1496624505.049966) can0 204#DC007D0243F5121A
(1496624505.050215) can0 213#FFFF08040001FF40
(1496624505.050465) can0 214#80000000000071E0
(1496624505.050714) can0 216#C021991282000931
(1496624505.050965) can0 217#0000000000000000
(1496624505.051215) can0 230#0002000000000000
(1496624505.051345) can0 25C#01F906522418825C
(1496624505.051590) can0 3CC#8000000000000000
(1496624505.051967) can0 415#001ACCDF0FFF0FFF
(1496624505.052093) can0 4B0#A3000000E00150C7
(1496624505.054718) can0 186#140401F400ED0400
(1496624505.054843) can0 187#DF14080000400000
(1496624505.057468) can0 047#2000000000000000
(1496624505.057600) can0 167#72803F09FFE00000
(1496624505.057714) can0 202#0CF4427264EE0000
(1496624505.057730) can0 204#E0007D0243F4121A
(1496624505.057968) can0 217#0000000000000000
(1496624505.058216) can0 25C#01FB064E2418825C
(1496624505.059599) can0 085#7C3980004E307C7D
(1496624505.059721) can0 091#FFFE7F03B0CD3000
(1496624505.059845) can0 092#6FAD6F8B0FA027CD
(1496624505.059860) can0 3A8#E000A6D500000000
(1496624505.061219) can0 3CA#FF80080000000000
(1496624505.062594) can0 078#0028001000000000
(1496624505.065220) can0 42C#8800000054A00000
(1496624505.067847) can0 165#20C34B0010000000
(1496624505.067971) can0 167#72803F09FFE00000
(1496624505.067982) can0 076#3E41C08000000000
(1496624505.068223) can0 077#000008007FF7F5FF
(1496624505.068469) can0 07D#002AC6F0183FEFFE
(1496624505.068721) can0 082#7E08940CA9804000
(1496624505.068967) can0 085#7C3980004D407C7D
(1496624505.069219) can0 200#02968000806C090A
(1496624505.069346) can0 04A#0200001800000000
(1496624505.069593) can0 04B#000018D8C018C000
(1496624505.069844) can0 04C#206BBF0000000000
(1496624505.070093) can0 091#FFFE7F03AFCE3000
(1496624505.070467) can0 092#6FA16F8B0FA032CE
(1496624505.070595) can0 202#0CF34A7264EE0000
(1496624505.070843) can0 213#FFFF08040001FF40
(1496624505.071093) can0 204#E4007D0243F31230
(1496624505.071344) can0 214#80000000000070F0
(1496624505.071593) can0 216#C221991282000A34
(1496624505.071842) can0 217#0000000000000000
(1496624505.072092) can0 230#0002000000000000
(1496624505.072343) can0 083#0020000000000000
(1496624505.072470) can0 415#001AD0DE0FFF0FFF
(1496624505.072718) can0 25C#01F906512418825C
(1496624505.072968) can0 2A1#FFFFFFFF00000000
(1496624505.073342) can0 4B0#A3000000F00150C6
(1496624505.074720) can0 186#140401F400ED0400
(1496624505.074846) can0 187#DF14080000400000
(1496624505.075093) can0 242#00EB2006E8000001
(1496624505.077721) can0 047#2000000000000000
(1496624505.077848) can0 167#72803F09FFE00000
(1496624505.077976) can0 202#0CF2527266EE0000
(1496624505.077993) can0 204#E8007D0244F21220
(1496624505.078002) can0 217#0000000000000000
(1496624505.078222) can0 25C#01FC064D2418825C
(1496624505.078468) can0 455#0000000000000000
(1496624505.078720) can0 085#7C3980004C507C7D
(1496624505.078970) can0 3CC#8000000000000000
(1496624505.079219) can0 091#FFFE7EFDB5CF3000
(1496624505.079470) can0 092#6FAF6F870FA027CF
(1496624505.079720) can0 3A8#E000A6D500000000
(1496624505.082346) can0 078#0128801000000000
(1496624505.087597) can0 167#72804009FFE00000
(1496624505.087725) can0 165#20C34B0010000000
(1496624505.087850) can0 200#02968000806C0B08
(1496624505.088095) can0 076#3E42C08000000000
(1496624505.088345) can0 077#000008017FF7E1FF
(1496624505.088602) can0 07D#002AD50018BFEFFE
(1496624505.088724) can0 082#7E08940CA9804000
(1496624505.088970) can0 085#7C3A80004A607C7D
(1496624505.089221) can0 202#0CF15A7266EE0000
(1496624505.089470) can0 091#FFFE7F04ACD03000
(1496624505.089719) can0 092#6FA56F860FA031D0
(1496624505.089971) can0 204#EC007D0244F11220
(1496624505.090346) can0 213#FFFF08040001FF40
(1496624505.090472) can0 214#8000000000007F00
(1496624505.090720) can0 216#C221991282000B43
(1496624505.090970) can0 217#0000000000000000
(1496624505.091220) can0 230#0002000000000000
(1496624505.091355) can0 25C#01F706522418825C
(1496624505.091719) can0 3CA#FF80080000000000
(1496624505.091848) can0 415#001AD4DD0FFF0FFF
(1496624505.092095) can0 416#9400F90001000000
(1496624505.092345) can0 4B0#A3000000000150D5
(1496624505.094973) can0 186#140401F400ED0400
(1496624505.095099) can0 187#DF14080000400000
(1496624505.097849) can0 047#2000000000000000
(1496624505.097866) can0 167#72803F09FFE00000
(1496624505.097875) can0 202#0CF0627260EE0000
(1496624505.097972) can0 217#0000000000000000
(1496624505.098346) can0 204#F0007D0245F01236
(1496624505.098475) can0 25C#01F3064E2418825C
(1496624505.098842) can0 085#7C3A800049707C7D
(1496624505.100221) can0 091#FFFE7F00AFD13000
(1496624505.100239) can0 092#6FAE6F8A0FA023D1
(1496624505.100345) can0 3A8#E000A6D500000000
(1496624505.101719) can0 078#0028001000000000
(1496624505.106968) can0 167#72803E09FFE00000
(1496624505.108643) can0 165#20C34B0010000000
(1496624505.108659) can0 076#3E42C08000000000
(1496624505.108669) can0 077#000008017FF7E9FE
(1496624505.108714) can0 07D#002AD41018BFEFFE
(1496624505.108724) can0 082#7E089408A9804000
(1496624505.108848) can0 085#7C3B800047807C7D
(1496624505.109097) can0 178#022102004E5DCE4D
(1496624505.109351) can0 213#FFFF08040001FF40
(1496624505.109598) can0 091#FFFE7EFDB2D23000
(1496624505.109848) can0 092#6FAD6F880FA025D2
(1496624505.110098) can0 214#8000000000007E10
(1496624505.110348) can0 200#02968000806C0D06
(1496624505.110597) can0 216#C221991282000C36
(1496624505.110850) can0 217#0000000000000000
(1496624505.111097) can0 202#0CEF6A7260EE0000
(1496624505.111226) can0 204#F4007D0245EF122B
(1496624505.111473) can0 3CC#8000000000000000
(1496624505.111846) can0 415#001AD8DC0FFF0FFF
(1496624505.111975) can0 4B0#A3000000100150D4
(1496624505.113350) can0 230#0002000000000000
(1496624505.113477) can0 25C#01F906512418825C
(1496624505.114850) can0 186#140401F400ED0400
(1496624505.114976) can0 187#DF14080000400000
(1496624505.115101) can0 18A#0020180014000000
(1496624505.115226) can0 242#00EB2006E8000001
(1496624505.115476) can0 40A#C1023538363930FF
(1496624505.115724) can0 42C#8800000054A00000
(1496624505.117100) can0 047#2000000000000000
(1496624505.117348) can0 167#72803E09FFE00000
(1496624505.117599) can0 202#0CEE727260EE0000
(1496624505.117849) can0 204#F8007D0245EE122B
(1496624505.118098) can0 217#0000000000000000
(1496624505.118227) can0 25C#01F7064D2418825C
(1496624505.119602) can0 085#7C3B800046907C7D
(1496624505.119729) can0 091#FFFE7EFBB3D33000
(1496624505.119854) can0 092#6FA46F8C0FA029D3
(1496624505.119869) can0 3A8#E000A6D500000000
(1496624505.121227) can0 3CA#FF80080000000000
(1496624505.122601) can0 078#5529801000000000
(1496624505.122729) can0 422#0000008E3C12FF00
(1496624505.122746) can0 423#ABA0000000000000
(1496624505.122849) can0 430#37015834C8797700
(1496624505.126851) can0 167#72804009FFE00000
(1496624505.127100) can0 165#20C34B0010000000
(1496624505.129852) can0 076#3E43C08000000000
(1496624505.129870) can0 077#000008007FF7F1FF
(1496624505.129880) can0 07D#002AD32018BFEFFE
(1496624505.130105) can0 082#7E08940CA9804000
(1496624505.130121) can0 085#7C3C800043A07C7E
(1496624505.130131) can0 200#02968000806C0F04
(1496624505.130140) can0 091#FFFE7F04A8D43000
(1496624505.130354) can0 092#6FB76F890FA018D4
(1496624505.130601) can0 202#0CED7A7262EE0000
(1496624505.130730) can0 204#FC007D0245ED1225
(1496624505.130976) can0 213#FFFF08040001FF40
(1496624505.131226) can0 214#8000000000007D20
(1496624505.131354) can0 216#C221991282000D30
(1496624505.131601) can0 217#0000000000000000
(1496624505.131849) can0 230#0002000000000000
(1496624505.131980) can0 25C#01F706522418825C
(1496624505.132226) can0 415#001ADCDB0FFF0FFF
(1496624505.132353) can0 4B0#A3000000200150D3
(1496624505.134980) can0 186#140401F400ED0400
(1496624505.135103) can0 187#DE14080000500000
(1496624505.137975) can0 047#2000000000000000
(1496624505.137992) can0 167#72804009FFE00000
(1496624505.138002) can0 202#0CFC027262EE0000
(1496624505.138011) can0 204#C0007D0245FC122B
(1496624505.138019) can0 217#0000000000000000
(1496624505.138224) can0 25C#01F6064D2418825C
(1496624505.139854) can0 085#7C3C800043B07C7D
(1496624505.139871) can0 3CC#8000000000000000
(1496624505.139880) can0 091#FFFE7EFAB2D53000
(1496624505.139890) can0 092#6FA86F850FA02AD5
(1496624505.139898) can0 3A8#E000A6D500000000
(1496624505.142480) can0 078#0128801000000000
(1496624505.147854) can0 167#72804009FFE00000
(1496624505.147871) can0 165#20C34B0010000000
(1496624505.147881) can0 200#02968000806A0114
(1496624505.148105) can0 076#3E44C08000000000
(1496624505.148354) can0 077#000008017FF7FDFF
(1496624505.148610) can0 07D#002AD23018BFEFFE
(1496624505.148854) can0 082#7E089408A9804000
(1496624505.149103) can0 085#7C3C800042C07C7D
(1496624505.149352) can0 202#0CFB0A7264EE0000
(1496624505.149480) can0 091#FFFE7F02A8D63000
(1496624505.149728) can0 092#6FAD6F870FA022D6
(1496624505.149977) can0 204#C4007D0244FB122B
(1496624505.150229) can0 213#FFFF08040001FF40
(1496624505.150477) can0 214#8000000000007C30
(1496624505.150729) can0 216#C221991282000E32
(1496624505.150977) can0 217#0000000000000000
(1496624505.151228) can0 230#0002000000000000
(1496624505.151478) can0 25C#01F506522418825C
(1496624505.151728) can0 3CA#FF80080000000000
(1496624505.151977) can0 415#001AE0DA0FFF0FFF
(1496624505.152226) can0 4B0#A3000000300150D2
(1496624505.154855) can0 186#140401F400ED0400
(1496624505.154981) can0 187#DE14080000500000
(1496624505.154997) can0 242#00EB2006E8000001
(1496624505.157854) can0 047#2000000000000000
(1496624505.157871) can0 167#72804109FFE00000
(1496624505.157881) can0 202#0CFA127264EE0000
(1496624505.157890) can0 204#C8007D0244FA121A
(1496624505.157979) can0 217#0000000000000000
(1496624505.158357) can0 25C#01F9064D2418825C
(1496624505.158613) can0 085#7C3C800041D07C7D
(1496624505.159982) can0 3A8#E000A6D500000000
(1496624505.160103) can0 091#FFFE7EFAB0D73000
(1496624505.160119) can0 092#6FB16F840FA020D7
(1496624505.162732) can0 078#0028001000000000
(1496624505.166733) can0 42C#8800000054A00000
(1496624505.166854) can0 167#72804209FFE00000
(1496624505.168233) can0 165#20C34B0010000000
(1496624505.168364) can0 076#3E45C08000000000
(1496624505.168381) can0 077#000008017FF7F1FD
(1496624505.168390) can0 07D#002AD14018BFEFFE
(1496624505.168642) can0 200#02968000806A0312
(1496624505.168859) can0 082#7E089408A9804000
(1496624505.169106) can0 085#7C3D80003EE07C7E
(1496624505.169355) can0 202#0CF91A7264EE0000
(1496624505.169605) can0 04A#0200001800000000
(1496624505.169855) can0 04B#000018D8C018C000
(1496624505.170106) can0 04C#206BBF0000000000
(1496624505.170355) can0 091#FFFE7EFEABD83000
(1496624505.170605) can0 092#6FA36F8A0FA027D8
(1496624505.170855) can0 204#CC007D0244F91210
(1496624505.171105) can0 213#FFFF08040001FF40
(1496624505.171362) can0 214#8000000000007B40
(1496624505.171485) can0 216#C221991282000F2D
(1496624505.171731) can0 217#0000000000000000
(1496624505.171981) can0 230#0002000000000000
(1496624505.172230) can0 083#0020000000000000
(1496624505.172481) can0 25C#01F506532418825C
(1496624505.172731) can0 2A1#FFFFFFFF00000000
(1496624505.172982) can0 3A7#00400A0C5F000000
(1496624505.173230) can0 3CC#8000000000000000
(1496624505.173485) can0 415#001AE4D90FFF0FFF
(1496624505.173730) can0 454#0006761542460000
(1496624505.173980) can0 4B0#A3000000400150D1
(1496624505.175358) can0 186#140401F400ED0400
(1496624505.175485) can0 187#DE14080000500000
(1496624505.176857) can0 047#2000000000000000
(1496624505.177106) can0 167#72804309FFE00000
(1496624505.177358) can0 202#0CF8227266EE0000
(1496624505.177605) can0 204#D0007D0242F81210
(1496624505.178105) can0 217#0000000000000000
(1496624505.178233) can0 25C#01ED064E2418825C
(1496624505.178482) can0 455#0000000000000000
(1496624505.178734) can0 085#7C3D80003EF07C7D
(1496624505.180109) can0 091#FFFE7F00A7D93000
(1496624505.180235) can0 092#6FAE6F880FA01DD9
(1496624505.180358) can0 3A8#E000A6D500000000
(1496624505.180607) can0 3CA#FF80080000000000
(1496624505.181984) can0 078#0128801000000000
(1496624505.184733) can0 3A6#00400A0C5F000000
(1496624505.187486) can0 165#20C34B0010000000
(1496624505.187503) can0 167#72804109FFE00000
(1496624505.189110) can0 076#3E45C08000000000
(1496624505.189128) can0 077#000008007FF7E5FD
(1496624505.189137) can0 07D#002AD05018BFEFFE
(1496624505.189146) can0 082#7E089408A9804000
(1496624505.189155) can0 085#7C3D80004D007C7D
(1496624505.189163) can0 200#02968000806C050E
(1496624505.189359) can0 202#0CF72A7266EE0000
(1496624505.189609) can0 091#FFFE7EFFA8DA3000
(1496624505.189859) can0 092#6FAA6F890FA01FDA
(1496624505.190108) can0 204#D4007D0242F71215
(1496624505.190358) can0 213#FFFF08040001FF40
(1496624505.190607) can0 214#8000000000007A50
(1496624505.190858) can0 216#C221991282001043
(1496624505.190986) can0 217#0000000000000000
(1496624505.191357) can0 230#0002000000000000
(1496624505.191487) can0 25C#01EE06512418825C
(1496624505.191733) can0 415#001AE8D80FFF0FFF
(1496624505.191983) can0 416#9500F80001000000
(1496624505.192234) can0 4B0#A3000000500150D0
(1496624505.194860) can0 186#140401F400ED0400
(1496624505.194987) can0 187#DE14080000500000
(1496624505.195110) can0 242#00EB2008E7000001
(1496624505.197735) can0 047#2000000000000000
(1496624505.197867) can0 167#72804009FFE00000
(1496624505.197984) can0 202#0CF6327260EE0000
(1496624505.198000) can0 204#D8007D0242F61220
(1496624505.198009) can0 217#0000000000000000
(1496624505.198237) can0 25C#01F6064D2418825C
(1496624505.199612) can0 085#7C3E80004A107C7E
(1496624505.199732) can0 3CC#8000000000000000
(1496624505.199864) can0 091#FFFE7EFBABDB3000
(1496624505.199880) can0 092#6FAA6F880FA01FDB
(1496624505.199982) can0 3A8#E000A6D500000000
(1496624505.202613) can0 078#0128801000000000
(1496624505.207738) can0 165#20C34B0010000000
(1496624505.207860) can0 167#72804109FFE00000
(1496624505.207876) can0 076#3E46C08000000000
(1496624505.208236) can0 077#000008007FF7EDFE
(1496624505.208365) can0 07D#002ACF6018BFEFFE
(1496624505.208618) can0 178#022101FF4E5DCE4D
(1496624505.208860) can0 082#7E089408A9804000
(1496624505.209236) can0 085#7C3E80004A207C7D
(1496624505.209363) can0 213#FFFF08040001FF40
(1496624505.209610) can0 214#8000000000007960
(1496624505.209861) can0 091#FFFE7EF8ADDC3000
(1496624505.210111) can0 092#6FB26F850FA019DC
(1496624505.210361) can0 200#02968000806C070C
(1496624505.210611) can0 216#C221991382001142
(1496624505.210738) can0 202#0CF53A7260EE0000
(1496624505.210985) can0 204#DC007D0242F51220
(1496624505.211235) can0 217#0000000000000000
(1496624505.211487) can0 3CA#FF80080000000000
(1496624505.211735) can0 415#001AECD70FFF0FFF
(1496624505.211986) can0 4B0#A3000000600150CF
(1496624505.213362) can0 230#0002000000000000
(1496624505.213489) can0 25C#01F706532418825C
(1496624505.214863) can0 186#140401F400ED0400
(1496624505.214990) can0 187#DE14080000500000
(1496624505.215006) can0 18A#0020180014000000
(1496624505.216489) can0 42C#8800000054A00000
(1496624505.216614) can0 047#2000000000000000
(1496624505.217988) can0 167#72804109FFE00000
(1496624505.218115) can0 202#0CF4427260EE0000
(1496624505.218131) can0 217#0000000000000000
(1496624505.218235) can0 204#E0007D0242F4120A
(1496624505.218488) can0 25C#01F2064E2418825C
(1496624505.218739) can0 085#7C3E800049307C7D
(1496624505.220115) can0 091#FFFE7EFCA8DD3000
(1496624505.220240) can0 092#6FA26F880FA025DD
(1496624505.220256) can0 3A8#E000A6D500000000
(1496624505.221614) can0 078#5429001000000000
(1496624505.221863) can0 422#0000008E3C12FF00
(1496624505.222112) can0 423#ABA0000000000000
(1496624505.222361) can0 430#37015834C8797700
(1496624505.227615) can0 165#20C34B0010000000
(1496624505.227632) can0 167#72804109FFE00000
(1496624505.227989) can0 200#02968000806C090A
(1496624505.228117) can0 076#3E47C08000000000
(1496624505.228363) can0 077#000007FE7FF7F5FE
(1496624505.228620) can0 07D#002ACE7018BFEFFE
(1496624505.228863) can0 082#7E08940CA9804000
(1496624505.229114) can0 085#7C3F800046407C7E
(1496624505.229362) can0 202#0CF34A7262EE0000
(1496624505.229490) can0 204#E4007D0241F31205
(1496624505.229738) can0 213#FFFF08040001FF40
(1496624505.229988) can0 091#FFFE7EFDA6DE3000
(1496624505.230239) can0 092#6FAB6F8A0FA019DE
(1496624505.230488) can0 214#8000000000007870
(1496624505.230738) can0 216#C221991382001200
(1496624505.230988) can0 217#0000000000000000
(1496624505.231238) can0 230#0002000000000000
(1496624505.231487) can0 25C#01F206512418825C
(1496624505.231738) can0 3CC#8000000000000000
(1496624505.231988) can0 415#0019F0D70FFF0FFF
(1496624505.232238) can0 4B0#A3000000700150CE
(1496624505.234865) can0 186#140401F400ED0400
(1496624505.234992) can0 187#DD14080000600000
(1496624505.235008) can0 242#00EB2009E7000001
(1496624505.237617) can0 047#2000000000000000
(1496624505.237738) can0 167#72804009FFE00000
(1496624505.237869) can0 202#0CF2527262EE0000
(1496624505.237886) can0 204#E8007D0241F21205
(1496624505.237987) can0 217#0000000000000000
(1496624505.238238) can0 25C#01F7064C2418825C
(1496624505.239617) can0 085#7C3F800046507C7D
(1496624505.239738) can0 091#FFFE7F049DDF3000
(1496624505.239869) can0 092#6FAB6F910FA011DF
(1496624505.240114) can0 3A8#E000A6D500000000
(1496624505.241491) can0 3CA#FF80080000000000
(1496624505.241618) can0 078#0128801000000000
(1496624505.246866) can0 167#72804009FFE00000
(1496624505.247114) can0 165#20C34B0010000000
(1496624505.248742) can0 076#3E47C08000000000
(1496624505.248759) can0 077#000008007FF7EDFE
(1496624505.248769) can0 07D#002ACD8018BFEFFE
(1496624505.248778) can0 082#7E089408A9804000
(1496624505.248864) can0 085#7C3F800045607C7D
(1496624505.249242) can0 200#02968000806C0B08
(1496624505.249371) can0 202#0CF15A7262EE0000
(1496624505.249616) can0 213#FFFF08040001FF40
(1496624505.249866) can0 091#FFFE7EFEA3E03000
(1496624505.250116) can0 092#6FA16F830FA028E0
(1496624505.250369) can0 204#EC007D0241F11225
(1496624505.250615) can0 214#8000000000007780
(1496624505.250743) can0 216#C221991382001300
(1496624505.250991) can0 217#0000000000000000
(1496624505.251240) can0 230#0002000000000000
(1496624505.251492) can0 415#0019F4D60FFF0FFF
(1496624505.251741) can0 4B0#A3000000800150CD
(1496624505.253241) can0 25C#01F606522418825C
(1496624505.254618) can0 186#140401F400ED0400
(1496624505.254865) can0 187#DD14080000600000
(1496624505.257492) can0 047#2000000000000000
(1496624505.257624) can0 167#72804009FFE00000
(1496624505.257640) can0 202#0CF0627264EE0000
(1496624505.257743) can0 204#F0007D0243F01215
(1496624505.257992) can0 217#0000000000000000
(1496624505.258241) can0 25C#01F9064F2418825C
(1496624505.259621) can0 085#7C3F800044707C7D
(1496624505.259745) can0 3CC#8000000000000000
(1496624505.259761) can0 3A8#E000A6D500000000
(1496624505.259867) can0 091#FFFE7EFFA1E13000
(1496624505.260117) can0 092#6FB76F890FA00BE1
(1496624505.262744) can0 078#0128801000000000
(1496624505.265369) can0 42C#8800000054A00000
(1496624505.267995) can0 165#20C34B0010000000
(1496624505.268012) can0 167#72803F09FFE00000
(1496624505.268248) can0 076#3E48C08000000000
(1496624505.268265) can0 077#000008007FF7E200
(1496624505.268368) can0 07D#002ACC9018BFEFFE
(1496624505.268625) can0 200#02968000806C0D06
(1496624505.268868) can0 082#7E089408A9804000
(1496624505.269118) can0 085#7C3F800043807C7D
(1496624505.269372) can0 202#0CEF6A7264EE0000
(1496624505.269617) can0 204#F4007D0243EF1215
(1496624505.269869) can0 04A#0200001800000000
(1496624505.270118) can0 04B#000018D8C018C000
(1496624505.270368) can0 04C#206BBF0000000000
(1496624505.270617) can0 091#FFFE7EFFA0E23000
(1496624505.270746) can0 092#6FA56F890FA01CE2
(1496624505.270993) can0 213#FFFF08040001FF40
(1496624505.271244) can0 214#8000000000007690
(1496624505.271494) can0 216#C221991382001455
(1496624505.271742) can0 217#0000000000000000
(1496624505.272118) can0 230#0002000000000000
(1496624505.272246) can0 083#0020000000000000
(1496624505.272493) can0 25C#01FA06522418825C
(1496624505.272742) can0 2A1#FFFFFFFF00000000
(1496624505.272993) can0 3CA#FF80080000000000
(1496624505.273244) can0 415#0019F8D50FFF0FFF
(1496624505.273492) can0 4B0#A3000000900150CC
(1496624505.274870) can0 186#140401F400ED0400
(1496624505.274997) can0 187#DD14080000600000
(1496624505.275013) can0 242#00EB2009E7000001
(1496624505.277621) can0 047#2000000000000000
(1496624505.277747) can0 167#72803E09FFE00000
(1496624505.277874) can0 202#0CEE727266EE0000
(1496624505.277890) can0 204#F8007D0243EE1225
(1496624505.277992) can0 217#0000000000000000
(1496624505.278244) can0 25C#01F7064D2418825C
(1496624505.279622) can0 085#7C40800040907C7E
(1496624505.279748) can0 455#0000000000000000
(1496624505.279872) can0 091#FFFE7F0499E33000
(1496624505.279889) can0 092#6FB16F840FA014E3
(1496624505.280122) can0 3A8#E000A6D500000000
(1496624505.282746) can0 078#0028001000000000
(1496624505.286870) can0 167#72803E09FFE00000
(1496624505.287120) can0 165#20C34B0010000000
(1496624505.288747) can0 200#02968000806C0F04
(1496624505.288764) can0 076#3E48C08000000000
(1496624505.288774) can0 077#000008007FF7E9FE
(1496624505.288783) can0 07D#002ACBA018BFEFFE
(1496624505.288792) can0 082#7E089408A9804000
(1496624505.288993) can0 085#7C4080003FA07C7E
(1496624505.289250) can0 202#0CED7A7266EE0000
(1496624505.289495) can0 204#FC007D0243ED1220
(1496624505.289746) can0 213#FFFF08040001FF40
(1496624505.289995) can0 091#FFFE7F019BE43000
(1496624505.290245) can0 092#6FB46F890FA00BE4
(1496624505.290498) can0 214#80000000000075A0
(1496624505.290624) can0 216#C221991382001555
(1496624505.290871) can0 217#0000000000000000
(1496624505.291122) can0 230#0002000000000000
(1496624505.291371) can0 25C#01FB06532418825C
(1496624505.291620) can0 3CC#8000000000000000
(1496624505.291996) can0 415#0018FCD50FFF0FFF
(1496624505.292124) can0 416#9600F70001000000
(1496624505.292371) can0 4B0#A3000000A00150CB
(1496624505.294998) can0 186#140401F400ED0400
(1496624505.295123) can0 187#DD14080000600000
(1496624505.297749) can0 047#2000000000000000
(1496624505.298124) can0 167#72803F09FFE00000
(1496624505.298141) can0 202#0CFC027266EE0000
(1496624505.298150) can0 204#C0007D0243FC1220
(1496624505.298159) can0 217#0000000000000000
(1496624505.298168) can0 25C#01F7064E2418825C
(1496624505.299503) can0 085#7C4080003FB07C7D
(1496624505.299743) can0 3A8#E000A6D500000000
(1496624505.299991) can0 091#FFFE7EFCA0E53000
(1496624505.300241) can0 092#6FA86F8D0FA012E5
(1496624505.301620) can0 3CA#FF80080000000000
(1496624505.301746) can0 078#0128801000000000
(1496624505.308121) can0 165#20C34B0010000000
(1496624505.308248) can0 167#72804109FFE00000
(1496624505.308265) can0 076#3E49C08000000000
(1496624505.308372) can0 077#000008007FF7F9FD
(1496624505.308644) can0 07D#002ACAB018BFEFFE
(1496624505.308874) can0 082#7E089408A9804000
(1496624505.309003) can0 085#7C4080003EC07C7D
(1496624505.309248) can0 178#022102024E5DCE4D
(1496624505.309498) can0 213#FFFF08040001FF40
(1496624505.309748) can0 214#80000000000074B0
(1496624505.309998) can0 091#FFFE7F0199E63000
(1496624505.310248) can0 092#6FAD6F840FA015E6
(1496624505.310498) can0 216#C221991382001655
(1496624505.310748) can0 217#0000000000000000
(1496624505.310998) can0 415#0018C0E40FFF0FFF
(1496624505.311247) can0 200#02968000806C0112
(1496624505.311501) can0 202#0CFB0A7260EE0000
(1496624505.311748) can0 204#C4007D0244FB1236
(1496624505.311877) can0 4B0#A3000000B00150CA
(1496624505.314748) can0 230#0002000000000000
(1496624505.314765) can0 25C#01F906522418825C
(1496624505.314775) can0 186#140401F400ED0400
(1496624505.314784) can0 187#DD14080000600000
(1496624505.315126) can0 18A#0020180014000000
(1496624505.315380) can0 242#00EB200AE7000001
(1496624505.315503) can0 40A#C104012307E020C1
(1496624505.315749) can0 42C#8800000054A00000
(1496624505.317125) can0 047#2000000000000000
(1496624505.317376) can0 167#72804109FFE00000
(1496624505.317504) can0 202#0CFA127260EE0000
(1496624505.317873) can0 204#C8007D0244FA1220
(1496624505.318002) can0 217#0000000000000000
(1496624505.318249) can0 25C#01F9064D2418825C
(1496624505.319628) can0 085#7C4080003DD07C7D
(1496624505.319753) can0 3CC#8000000000000000
(1496624505.319769) can0 3A8#E000A6D500000000
(1496624505.320001) can0 091#FFFE7F0396E73000
(1496624505.320249) can0 092#6FA96F890FA013E7
(1496624505.321626) can0 078#5529801000000000
(1496624505.321874) can0 422#0000008E3C12FF00
(1496624505.322124) can0 423#ABA0000000000000
(1496624505.322374) can0 430#37015834C8797700
(1496624505.327628) can0 167#72804109FFE00000
(1496624505.327644) can0 165#20C34B0010000000
(1496624505.327749) can0 200#02968000806C0310
(1496624505.328001) can0 076#3E49C08000000000
(1496624505.328251) can0 077#000008007FF7F1FF
(1496624505.328500) can0 07D#002AC9C018BFEFFE
(1496624505.328752) can0 082#7E089408A9804000
(1496624505.329002) can0 085#7C4080003CE07C7D
(1496624505.329249) can0 202#0CF91A7262EE0000
(1496624505.329500) can0 204#CC007D0244F91220
(1496624505.329750) can0 213#FFFF08040001FF40
(1496624505.330001) can0 091#FFFE7F0098E83000
(1496624505.330250) can0 092#6FAB6F870FA012E8
(1496624505.330500) can0 214#80000000000073C0
(1496624505.330629) can0 216#C221991382001755
(1496624505.330876) can0 217#0000000000000000
(1496624505.331126) can0 230#0002000000000000
(1496624505.331382) can0 25C#01F206522418825C
(1496624505.331632) can0 3CA#FF80080000000000
(1496624505.331875) can0 415#0018C4E30FFF0FFF
(1496624505.332126) can0 4B0#A3000000C00150C9
(1496624505.334752) can0 186#140401F400ED0400
(1496624505.334878) can0 187#DC14080000700000
(1496624505.337502) can0 047#2000000000000000
(1496624505.337634) can0 167#72804009FFE00000
(1496624505.337651) can0 202#0CF8227262EE0000
(1496624505.337754) can0 204#D0007D0244F81210
(1496624505.338125) can0 217#0000000000000000
(1496624505.338254) can0 25C#01F3064D2418825C
(1496624505.339753) can0 085#7C4080003BF07C7D
(1496624505.339770) can0 3A8#E000A6D500000000
(1496624505.340004) can0 091#FFFE7F0394E93000
(1496624505.340251) can0 092#6FAF6F860FA00EE9
(1496624505.341628) can0 078#0028001000000000
(1496624505.348005) can0 165#20C34B0010000000
(1496624505.348136) can0 167#72803F09FFE00000
(1496624505.348153) can0 200#02968000806C050E
(1496624505.348162) can0 076#3E49C08000000000
(1496624505.348378) can0 077#000008007FF7EDFE
(1496624505.348632) can0 07D#002AC8D018BFEFFE
(1496624505.348881) can0 082#7E089408A9804000
(1496624505.349128) can0 085#7C4080004A007C7D
(1496624505.349381) can0 202#0CF72A7262EE0000
(1496624505.349628) can0 204#D4007D0244F7121A
(1496624505.349756) can0 213#FFFF08040001FF40
(1496624505.350003) can0 214#80000000000072D0
(1496624505.350253) can0 091#FFFE7F0096EA3000
(1496624505.350503) can0 092#6FA46F850FA019EA
(1496624505.350752) can0 216#C221991382001855
(1496624505.351003) can0 217#0000000000000000
(1496624505.351252) can0 230#0002000000000000
(1496624505.351503) can0 25C#01F406522418825C
(1496624505.351752) can0 3CC#8000000000000000
(1496624505.352003) can0 415#0017C8E30FFF0FFF
(1496624505.352252) can0 4B0#A3000000D00150C8
(1496624505.354881) can0 186#140401F400ED0400
(1496624505.355007) can0 187#DC14080000700000
(1496624505.355023) can0 242#00EB200AE7000001
(1496624505.357632) can0 047#2000000000000000
(1496624505.358006) can0 167#72804109FFE00000
(1496624505.358022) can0 202#0CF6327264EE0000
(1496624505.358032) can0 204#D8007D0242F6121A
(1496624505.358041) can0 217#0000000000000000
(1496624505.358127) can0 25C#01F1064D2418825C
(1496624505.359508) can0 085#7C40800049107C7D
(1496624505.359757) can0 3A8#E000A6D500000000
(1496624505.359883) can0 091#FFFE7F0194EB3000
(1496624505.360130) can0 092#6FB16F820FA00EEB
(1496624505.361506) can0 3CA#FF80080000000000
(1496624505.361633) can0 078#0328801000000000
(1496624505.365631) can0 42C#8800000054A00000
(1496624505.367131) can0 167#72804209FFE00000
(1496624505.367379) can0 165#20C34B0010000000
(1496624505.369006) can0 076#3E49C08000000000
(1496624505.369024) can0 077#000008007FF7E5FD
(1496624505.369033) can0 07D#002AC7E018BFEFFE
(1496624505.369136) can0 082#7E089408A9804000
(1496624505.369145) can0 085#7C40800048207C7D
(1496624505.369153) can0 200#02968000806C070C
(1496624505.369383) can0 202#0CF53A7264EE0000
(1496624505.369631) can0 213#FFFF08040001FF40
(1496624505.369880) can0 214#80000000000071E0
(1496624505.370131) can0 04A#0200001800000000
(1496624505.370380) can0 04B#000018D8C018C000
(1496624505.370631) can0 04C#206BBF0000000000
(1496624505.370880) can0 091#FFFE7F0292EC3000
(1496624505.371131) can0 092#6FB06F840FA00CEC
(1496624505.371258) can0 204#DC007D0242F51205
(1496624505.371631) can0 216#C221991382001955
(1496624505.371758) can0 217#0000000000000000
(1496624505.372005) can0 083#0020000000000000
(1496624505.372255) can0 230#0002000000000000
(1496624505.372505) can0 2A1#FFFFFFFF00000000
(1496624505.372756) can0 3A7#00400A0C5F000000
(1496624505.373005) can0 25C#01F306522418825C
(1496624505.373255) can0 415#0016CCE30FFF0FFF
(1496624505.373505) can0 4B0#A3000000E00150C7
(1496624505.374883) can0 186#140401F400ED0400
(1496624505.375008) can0 187#DC14080000700000
(1496624505.377632) can0 047#2000000000000000
(1496624505.378008) can0 167#72804309FFE00000
(1496624505.378025) can0 202#0CF4427264EE0000
(1496624505.378034) can0 204#E0007D0242F41210
(1496624505.378043) can0 217#0000000000000000
(1496624505.378130) can0 25C#01F2064D2418825C
(1496624505.378506) can0 455#0000000000000000
(1496624505.378631) can0 085#7C41800045307C7E
(1496624505.378883) can0 3CC#8000000000000000
(1496624505.380259) can0 3A8#E000A6D500000000
(1496624505.380386) can0 091#FFFE7F0192ED3000
(1496624505.380402) can0 092#6FA66F830FA016ED
(1496624505.381881) can0 078#0128801000000000
(1496624505.384634) can0 3A6#00400A0C5F000000
(1496624505.387383) can0 167#72804409FFE00000
(1496624505.387400) can0 165#20C34B0010000000
(1496624505.388884) can0 200#02968000806C090A
(1496624505.388901) can0 076#3E49C08000000000
(1496624505.389137) can0 077#000008017FF7F5FC
(1496624505.389154) can0 07D#002AC6F018BFEFFE
(1496624505.389164) can0 082#7E089408A9804000
(1496624505.389176) can0 085#7C41800044407C7E
(1496624505.389257) can0 202#0CF34A7266EE0000
(1496624505.389506) can0 204#E4007D0241F31210
(1496624505.389884) can0 213#FFFF08040001FF40
(1496624505.390011) can0 091#FFFE7EFF94EE3000
(1496624505.390261) can0 092#6FB26F840FA008EE
(1496624505.390508) can0 214#80000000000070F0
(1496624505.390758) can0 216#C221991382001A55
(1496624505.391008) can0 217#0000000000000000
(1496624505.391257) can0 230#0002000000000000
(1496624505.391508) can0 25C#01F306532418825C
(1496624505.391758) can0 3CA#FF80080000000000
(1496624505.392008) can0 415#0016D0E20FFF0FFF
(1496624505.392258) can0 416#9700F60001000000
(1496624505.392386) can0 4B0#A3000000F00150C6
(1496624505.395134) can0 186#140401F400ED0400
(1496624505.395151) can0 187#DC14080000700000
(1496624505.396511) can0 242#00EB200AE7000001
(1496624505.396637) can0 047#2000000000000000
(1496624505.398012) can0 167#72804309FFE00000
(1496624505.398029) can0 202#0CF2527266EE0000
(1496624505.398134) can0 204#E8007D0241F21200
(1496624505.398144) can0 217#0000000000000000
(1496624505.398261) can0 25C#01F4064F2418825C
(1496624505.399638) can0 085#7C41800044507C7D
(1496624505.399760) can0 3A8#E000A6D500000000
(1496624505.400010) can0 091#FFFE7F028FEF3000
(1496624505.400259) can0 092#6FA76F880FA00EEF
(1496624505.401636) can0 078#0028001000000000
(1496624505.405512) can0 084#1100009B24211200
(1496624505.407011) can0 167#72804209FFE00000
(1496624505.407383) can0 165#20C34B0010000000
(1496624505.408886) can0 076#3E4AC08000000000
(1496624505.409139) can0 077#000008007FF7F5FC
(1496624505.409156) can0 07D#002AD50018BFEFFE
(1496624505.409165) can0 082#7E089408A9804000
(1496624505.409174) can0 085#7C41800043607C7D
(1496624505.409183) can0 178#022101FD4E5DCE4D
(1496624505.409384) can0 213#FFFF08040001FF40
(1496624505.409639) can0 214#8000000000007F00
(1496624505.409886) can0 216#C221991382001B55
(1496624505.410014) can0 091#FFFE7EFF92F03000
(1496624505.410262) can0 092#6FAF6F8A0FA003F0
(1496624505.410511) can0 200#02968000806E0B06
(1496624505.410885) can0 202#0CF15A7260EE0000
(1496624505.411014) can0 204#EC007D0240F1120A
(1496624505.411260) can0 217#0000000000000000
(1496624505.411513) can0 3CC#8000000000000000
(1496624505.411760) can0 415#0015D4E20FFF0FFF
(1496624505.412011) can0 4B0#A3000000000150D5
(1496624505.413515) can0 230#0002000000000000
(1496624505.413532) can0 25C#01F1064F2418825C
(1496624505.414889) can0 186#140401F400ED0400
(1496624505.415016) can0 187#DC14080000700000
(1496624505.415032) can0 18A#0020180014000000
(1496624505.417640) can0 42C#8800000054A00000
(1496624505.417771) can0 047#2000000000000000
(1496624505.417787) can0 167#72804109FFE00000
(1496624505.417797) can0 202#0CF0627260EE0000
(1496624505.417885) can0 204#F0007D0240F0120A
(1496624505.418262) can0 217#0000000000000000
(1496624505.418511) can0 25C#01F0064F2418825C
(1496624505.418637) can0 085#7C41800042707C7D
(1496624505.420013) can0 3A8#E000A6D500000000
(1496624505.420141) can0 091#FFFE7EFE92F13000
(1496624505.420264) can0 092#6FB16F880FA002F1
(1496624505.421639) can0 3CA#FF80080000000000
(1496624505.421766) can0 59E#9E00FFFFFFFFFFFF
(1496624505.421891) can0 078#5529801000000000
(1496624505.422015) can0 422#0000008E3C12FF00
(1496624505.422263) can0 423#ABA0000000000000
(1496624505.422513) can0 430#3F015834C8797700
(1496624505.427765) can0 165#20C34B0010000000
(1496624505.427782) can0 167#72804009FFE00000
(1496624505.427888) can0 076#3E4AC08000000000
(1496624505.428138) can0 077#000008007FF7F1FE
(1496624505.428388) can0 07D#002AD41018BFEFFE
(1496624505.428644) can0 082#7E089408A9804000
(1496624505.428888) can0 085#7C41800041807C7D
(1496624505.429262) can0 200#02968000806E0D04
(1496624505.429393) can0 202#0CEF6A7260EE0000
(1496624505.429638) can0 213#FFFF08040001FF40
(1496624505.429888) can0 214#8000000000007E10
(1496624505.430138) can0 091#FFFE7EFC93F23000
(1496624505.430388) can0 092#6FA96F8D0FA004F2
(1496624505.430639) can0 204#F4007D0240EF1205
(1496624505.430766) can0 216#C221991382001C55
(1496624505.431013) can0 217#0000000000000000
(1496624505.431263) can0 230#0002000000000000
(1496624505.431514) can0 25C#01F2064F2418825C
(1496624505.431763) can0 415#0015D8E10FFF0FFF
(1496624505.432137) can0 4B0#A3000000100150D4
(1496624505.434765) can0 186#140401F400ED0400
(1496624505.434891) can0 187#DB14080000800000
(1496624505.435015) can0 242#00EB200AE7000001
(1496624505.437641) can0 047#2000000000000000
(1496624505.437764) can0 167#72803F09FFE00000
(1496624505.437895) can0 202#0CEE727262EE0000
(1496624505.437912) can0 204#F8007D0240EE1200
(1496624505.438013) can0 217#0000000000000000
(1496624505.438263) can0 25C#01F806502418825C
(1496624505.439643) can0 085#7C41800040907C7D
(1496624505.439764) can0 3CC#8000000000000000
(1496624505.439888) can0 188#4000000000000000
(1496624505.439905) can0 3A8#E000A6D500000000
(1496624505.440013) can0 091#FFFE7F0489F33000
(1496624505.440261) can0 092#6FB46F860FA0FFF3
(1496624505.441636) can0 078#0128801000000000
(1496624505.446886) can0 167#72803F09FFE00000
(1496624505.447135) can0 165#20C34B0010000000
(1496624505.448769) can0 200#02968000806E0F02
(1496624505.448787) can0 076#3E4AC08000000000
(1496624505.448796) can0 077#000008007FF7EDFE
(1496624505.448806) can0 07D#002AD32018BFEFFE
(1496624505.448814) can0 082#7E089408A9804000
(1496624505.449014) can0 085#7C4180003FA07C7D
(1496624505.449269) can0 202#0CED7A7262EE0000
(1496624505.449515) can0 204#FC007D0240ED1200
(1496624505.449765) can0 213#FFFF08040001FF40
(1496624505.450015) can0 214#8000000000007D20
(1496624505.450265) can0 216#C221991382001D55
(1496624505.450393) can0 091#FFFE7EFD90F43000
(1496624505.450640) can0 092#6FA66F8C0FA006F4
(1496624505.450890) can0 217#0000000000000000
(1496624505.451140) can0 230#0002000000000000
(1496624505.451391) can0 25C#01F9064F2418825C
(1496624505.451764) can0 3CA#FF80080000000000
(1496624505.451893) can0 415#0014DCE10FFF0FFF
(1496624505.452140) can0 4B0#A3000000200150D3
(1496624505.454767) can0 186#140401F400ED0400
(1496624505.454893) can0 187#DB14080000800000
(1496624505.456267) can0 3B3#4048001210050002
(1496624505.456641) can0 047#2000000000000000
(1496624505.458019) can0 167#72804009FFE00000
(1496624505.458037) can0 202#0CFC027264EE0000
(1496624505.458140) can0 204#C0007D0242FC122B
(1496624505.458150) can0 217#0000000000000000
(1496624505.458269) can0 25C#01F9064F2418825C
(1496624505.459769) can0 085#7C4180003EB07C7D
(1496624505.459786) can0 3A8#E000A6D500000000
(1496624505.460142) can0 091#FFFE7EFF8DF53000
(1496624505.460392) can0 092#6FA86F820FA00DF5
(1496624505.461768) can0 078#0028001000000000
(1496624505.465644) can0 42C#8800000054A00000
(1496624505.468519) can0 165#20C34B0010000000
(1496624505.468559) can0 167#72804009FFE00000
(1496624505.468582) can0 076#3E4AC08000000000
(1496624505.468592) can0 077#000008007FF7E9FD
(1496624505.468635) can0 07D#002AD23018BFEFFE
(1496624505.468645) can0 082#7E089408A9804000
(1496624505.468893) can0 085#7C4180003DC07C7D
(1496624505.469142) can0 200#02968000806C0112
(1496624505.469392) can0 202#0CFB0A7264EE0000
(1496624505.469642) can0 213#FFFF08040001FF40
(1496624505.469893) can0 204#C4007D0242FB1220
(1496624505.470142) can0 214#8000000000007C30
(1496624505.470392) can0 04A#0200001800000000
(1496624505.470642) can0 04B#000018D8C018C000
(1496624505.470893) can0 04C#206BBF0000000000
(1496624505.471142) can0 091#FFFE7F0288F63000
(1496624505.471268) can0 092#6FB46F8B0FA0F7F6
(1496624505.471518) can0 216#C221991382001E55
(1496624505.471767) can0 217#0000000000000000
(1496624505.472018) can0 083#0020000000000000
(1496624505.472267) can0 230#0002000000000000
(1496624505.472517) can0 25C#01FF064F2418825C
(1496624505.472767) can0 2A1#FFFFFFFF00000000
(1496624505.473143) can0 3CC#8000000000000000
(1496624505.473268) can0 415#0014E0E00FFF0FFF
(1496624505.473516) can0 4B0#A3000000300150D2
(1496624505.474894) can0 186#140401F400ED0400
(1496624505.475019) can0 187#DB14080000800000
(1496624505.475031) can0 242#00EB200AE7000001
(1496624505.477894) can0 047#2000000000000000
(1496624505.477907) can0 167#72804109FFE00000
(1496624505.477916) can0 202#0CFA127264EE0000
(1496624505.477924) can0 204#C8007D0242FA1220
(1496624505.477933) can0 217#0000000000000000
(1496624505.478143) can0 25C#01FB064D2418825C
(1496624505.478517) can0 455#0000000000000000
(1496624505.478646) can0 085#7C4180003CD07C7D
(1496624505.480019) can0 3A8#E000A6D500000000
(1496624505.480146) can0 091#FFFE7EFF8BF73000
(1496624505.480393) can0 092#6FA76F8B0FA003F7
(1496624505.480767) can0 3CA#FF80080000000000
(1496624505.482269) can0 078#0128801000000000
(1496624505.487520) can0 165#20C34B0010000000
(1496624505.487533) can0 167#72804109FFE00000
(1496624505.487895) can0 076#3E4AC08000000000
(1496624505.488144) can0 077#000008017FF7F9FC
(1496624505.488395) can0 07D#002AD14018BFEFFE
(1496624505.488652) can0 082#7E089408A9804000
(1496624505.488895) can0 085#7C4180003BE07C7D
(1496624505.489146) can0 200#02968000806C0310
(1496624505.489396) can0 202#0CF91A7266EE0000
(1496624505.489644) can0 213#FFFF08040001FF40
(1496624505.489894) can0 204#CC007D0244F91230
(1496624505.490143) can0 214#8000000000007B40
(1496624505.490271) can0 091#FFFE7EFA8FF83000
(1496624505.490521) can0 092#6FAB6F840FA005F8
(1496624505.490769) can0 216#C221991382001F55
(1496624505.491019) can0 217#0000000000000000
(1496624505.491269) can0 230#0002000000000000
(1496624505.491523) can0 25C#01F706512418825C
(1496624505.491770) can0 415#0013E4E00FFF0FFF
(1496624505.492019) can0 416#9800F50001000000
(1496624505.492269) can0 4B0#A3000000400150D1
(1496624505.494896) can0 186#140401F400ED0400
(1496624505.495146) can0 187#DB14080000800000
(1496624505.497772) can0 047#2000000000000000
(1496624505.498021) can0 167#72804209FFE00000
(1496624505.498034) can0 202#0CF8227266EE0000
(1496624505.498043) can0 204#D0007D0244F81230
(1496624505.498051) can0 217#0000000000000000
(1496624505.498271) can0 25C#01F9064D2418825C
(1496624505.499649) can0 085#7C42800038F07C7E
(1496624505.499768) can0 3CC#8000000000000000
(1496624505.499780) can0 3A8#E000A6D500000000
(1496624505.501142) can0 091#FFFE7F0087F93000
(1496624505.501155) can0 092#6FAA6F8E0FA0FBF9
(1496624505.502642) can0 078#0128801000000000
(1496624505.505267) can0 3EB#A40410000A100000
(1496624505.507894) can0 165#20C34B0010000000
(1496624505.507907) can0 167#72804309FFE00000
(1496624505.508019) can0 076#3E4AC08000000000
(1496624505.508143) can0 077#000007FF7FF7EDFF
(1496624505.508392) can0 07D#002AD05018BFEFFE
(1496624505.508650) can0 082#7E089408A9804000
(1496624505.508897) can0 085#7C42800047007C7E
(1496624505.509147) can0 178#022102024E5DCE4D
(1496624505.509401) can0 213#FFFF08040001FF40
(1496624505.509647) can0 214#8000000000007A50
(1496624505.509897) can0 216#C221991382002055
(1496624505.510147) can0 217#0000000000000000
(1496624505.510397) can0 091#FFFE7EF790FA3000
(1496624505.510523) can0 092#6FA66F880FA004FA
(1496624505.510773) can0 200#02968000806E050C
(1496624505.511022) can0 202#0CF72A7266EE0000
(1496624505.511273) can0 204#D4007D0244F71230
(1496624505.511522) can0 3CA#FF80080000000000
(1496624505.511772) can0 415#0013E8DF0FFF0FFF
(1496624505.512022) can0 4B0#A3000000500150D0
(1496624505.513398) can0 230#0002000000000000
(1496624505.513524) can0 25C#01F706522418825C
(1496624505.515025) can0 186#140401F400ED0400
(1496624505.515038) can0 187#DB14080000800000
(1496624505.515148) can0 18A#0020180014000000
(1496624505.515273) can0 242#00EB200AE7000001
(1496624505.516774) can0 40A#C110418C40250000
(1496624505.516899) can0 42C#8800000054A00000
(1496624505.516912) can0 047#2000000000000000
(1496624505.518274) can0 167#72804309FFE00000
(1496624505.518523) can0 217#0000000000000000
(1496624505.518552) can0 202#0CF6327260EE0000
(1496624505.518573) can0 204#D8007D0245F6122B
(1496624505.518773) can0 085#7C42800046107C7E
(1496624505.519023) can0 25C#01F9064E2418825C
(1496624505.520399) can0 3A8#E000A6D500000000
(1496624505.520526) can0 091#FFFE7EFC8AFB3000
(1496624505.520773) can0 092#6FB36F840FA0FAFB
(1496624505.522149) can0 078#5429001000000000
(1496624505.522276) can0 422#0000008E3C12FF00
(1496624505.522288) can0 423#ABA0000000000000
(1496624505.522298) can0 430#37015834C8797700
(1496624505.522524) can0 431#051B007E09800000
(1496624505.522773) can0 5B3#B300FFFFFFFFFFFF
(1496624505.526899) can0 167#72804209FFE00000
(1496624505.527149) can0 165#20C34B0010000000
(1496624505.528525) can0 200#02968000806E070A
(1496624505.528778) can0 076#3E4BC08000000000
(1496624505.528791) can0 077#000007FE7FF7E9FF
(1496624505.528801) can0 07D#002ACF6018BFEFFE
(1496624505.528809) can0 082#7E089408A9804000
(1496624505.529024) can0 085#7C42800045207C7E
(1496624505.529274) can0 202#0CF53A7260EE0000
(1496624505.529524) can0 204#DC007D0245F5122B
(1496624505.529774) can0 213#FFFF08048001FF40
(1496624505.530024) can0 214#8000000000007960
(1496624505.530152) can0 216#C221991382002155
(1496624505.530401) can0 091#FFFE7F0183FC3000
(1496624505.530652) can0 092#6FA76F890FA000FC
(1496624505.530900) can0 217#0000000000000000
(1496624505.531150) can0 230#0002000000000000
(1496624505.531400) can0 25C#01F806522418825C
(1496624505.531650) can0 3CC#8000000000000000
(1496624505.531901) can0 415#0012ECDF0FFF0FFF
(1496624505.532149) can0 4B0#A3000000600150CF
(1496624505.534776) can0 186#140401F400ED0400
(1496624505.534901) can0 187#DA14080000900000
(1496624505.537526) can0 047#2000000000000000
(1496624505.537652) can0 167#72804209FFE00000
(1496624505.537779) can0 202#0CF4427262EE0000
(1496624505.537791) can0 204#E0007D0245F4122B
(1496624505.537901) can0 217#0000000000000000
(1496624505.538150) can0 25C#01F5064D2418825C
(1496624505.539529) can0 085#7C42800044307C7E
(1496624505.539775) can0 3A8#E000A6D500000000
(1496624505.541276) can0 091#FFFE7F0083FD3000
(1496624505.541289) can0 092#6FAF6F890FA0F7FD
(1496624505.541298) can0 3CA#FF80080000000000
(1496624505.541651) can0 078#0128801000000000
(1496624505.546902) can0 167#72804209FFE00000
(1496624505.547276) can0 165#20C34B0010000000
(1496624505.548903) can0 076#3E4BC08000000000
(1496624505.548916) can0 077#000008007FF7E9FD
(1496624505.548925) can0 07D#002ACE7018BFEFFE
(1496624505.548936) can0 082#7E089408A9804000
(1496624505.548944) can0 085#7C42800043407C7E
(1496624505.549152) can0 200#02968000806E0908
(1496624505.549402) can0 202#0CF34A7262EE0000
(1496624505.549652) can0 213#FFFF08048001FF40
(1496624505.549901) can0 214#8000000000007870
(1496624505.550152) can0 204#E4007D0245F3122B
(1496624505.550278) can0 091#FFFE7EFE85FE3000
(1496624505.550528) can0 092#6FB06F850FA0F9FE
(1496624505.550776) can0 216#C221991382002255
(1496624505.551027) can0 217#0000000000000000
(1496624505.551277) can0 230#0002000000000000
(1496624505.551528) can0 415#0012F0DE0FFF0FFF
(1496624505.551776) can0 4B0#A3000000700150CE
(1496624505.553278) can0 25C#01F506522418825C
(1496624505.554654) can0 186#140401F400ED0400
(1496624505.554778) can0 187#DA14080000900000
(1496624505.555028) can0 242#00EB200AE7000001
(1496624505.557654) can0 047#2000000000000000
(1496624505.557781) can0 167#72804209FFE00000
(1496624505.557906) can0 202#0CF2527262EE0000
(1496624505.557918) can0 204#E8007D0245F2123B
(1496624505.558029) can0 217#0000000000000000
(1496624505.558277) can0 25C#01F5064E2418825C
(1496624505.559655) can0 085#7C42800043507C7D
(1496624505.559780) can0 3CC#8000000000000000
(1496624505.559906) can0 3A8#E000A6D500000000
(1496624505.561279) can0 091#FFFE7EFD85FF3000
(1496624505.561293) can0 092#6FA06F840FA009FF
(1496624505.561528) can0 078#0128801000000000
(1496624505.565405) can0 42C#8800000054A00000
(1496624505.568279) can0 165#20C34B0010000000
(1496624505.568292) can0 167#72804209FFE00000
(1496624505.568301) can0 076#3E4BC08000000000
(1496624505.568309) can0 077#000008007FF7F5FE
(1496624505.568406) can0 07D#0023D48018BFEFFE
(1496624505.568658) can0 082#7E089408A9804000
(1496624505.569030) can0 085#7C42800042607C7D
(1496624505.569155) can0 200#02968000806E0B06
(1496624505.569404) can0 202#0CF15A7264EE0000
(1496624505.569654) can0 204#EC007D0246F1123B
(1496624505.569904) can0 213#FFFF08048001FF40
(1496624505.570154) can0 214#8000000000007780
(1496624505.570405) can0 216#C221991382002354
(1496624505.570530) can0 04A#0200001800000000
(1496624505.570780) can0 04B#000018D8C018C000
(1496624505.571029) can0 04C#206BBF0000000000
(1496624505.571279) can0 091#FFFE7EFC85003000
(1496624505.571532) can0 092#6FB36F7D0FA0FC00
(1496624505.571780) can0 217#0000000000000000
(1496624505.572030) can0 083#0020000000000000
(1496624505.572280) can0 230#0002000000000000
(1496624505.572530) can0 25C#01FA02522418825C
(1496624505.572780) can0 2A1#FFFFFFFF00000000
(1496624505.573030) can0 3A7#00400A0C5F000000
(1496624505.573280) can0 3CA#FF80080000000000
(1496624505.573534) can0 415#0011F4DE0FFF0FFF
(1496624505.573779) can0 4B0#A3000000800138D0
(1496624505.575156) can0 186#140401F400ED0400
(1496624505.575281) can0 187#DA14080000900000
(1496624505.576656) can0 047#2000000000000000
(1496624505.578280) can0 167#72804109FFE00000
(1496624505.578293) can0 202#0CF0627264EE0000
(1496624505.578302) can0 204#F0007D0246F0122B
(1496624505.578310) can0 217#0000000000000000
(1496624505.578318) can0 25C#01F9024D2418825C
(1496624505.578657) can0 085#7C42800041707C7D
(1496624505.580281) can0 3E2#FFFFFFFFE0000000
(1496624505.580294) can0 3A8#E000A6D500000000
(1496624505.580303) can0 455#0000000000000000
(1496624505.580407) can0 091#FFFE7F007F013000
(1496624505.580656) can0 092#6FA36F850FA00301
(1496624505.582155) can0 078#0028001000000000
(1496624505.584782) can0 3A6#00400A0C5F000000
(1496624505.587533) can0 167#72804109FFE00000
(1496624505.587546) can0 165#20C34B0010000000
(1496624505.587906) can0 200#02968000806E0D04
(1496624505.588157) can0 076#3E4BC08000000000
(1496624505.588563) can0 077#000008007FF7F9FD
(1496624505.588660) can0 07D#0019DD9018BFEFFE
(1496624505.588907) can0 082#7E089408A9804000
(1496624505.589157) can0 085#7C42800040807C7D
(1496624505.589284) can0 202#0CEF6A7266EE0000
(1496624505.589537) can0 204#F4007D0246EF1230
(1496624505.589907) can0 213#FFFF08048001FF40
(1496624505.590033) can0 214#8000000000007690
(1496624505.590282) can0 216#C221991382000000
(1496624505.590531) can0 217#0000000000000000
(1496624505.590783) can0 091#FFFE7EFF80023000
(1496624505.591032) can0 092#6FA96F850FA0FC02
(1496624505.591282) can0 230#0002000000000000
(1496624505.591532) can0 25C#01F606522418825C
(1496624505.591781) can0 3CC#8000000000000000
(1496624505.592032) can0 415#0011F8DD08000800
(1496624505.592283) can0 416#9900F40001000000
(1496624505.592532) can0 4B0#A30000009000E8D9
(1496624505.592783) can0 596#9600FFFFFFFFFFFF
(1496624505.595409) can0 186#140401F400ED0400
(1496624505.595536) can0 187#DA14080000900000
(1496624505.595548) can0 242#00EB200AE7000001
(1496624505.596909) can0 047#2000000000000000
(1496624505.597159) can0 167#72804109FFE00000
(1496624505.597284) can0 202#0CEE727266EE0000
(1496624505.597533) can0 204#F8007D0246EE1230
(1496624505.599036) can0 217#0000000000000000
(1496624505.599048) can0 25C#01F9064E2418825C
(1496624505.599058) can0 085#7C4280003F907C7D
(1496624505.600410) can0 3A8#E000A6D500000000
(1496624505.600660) can0 091#FFFE7EFC82033000
(1496624505.600673) can0 092#6FB16F880FA0F003
(1496624505.600911) can0 3CA#FF80080000000000
(1496624505.602283) can0 078#0128801000000000
(1496624505.607535) can0 167#72804209FFE00000
(1496624505.607548) can0 165#20C34B0010000000
(1496624505.608033) can0 076#3E4BC08000000000
(1496624505.608161) can0 077#000008007FF7EDFD
(1496624505.608409) can0 07D#0011E4A018BFEFFE
(1496624505.608662) can0 082#7E089408A9804000
(1496624505.608909) can0 085#7C4280003EA07C7D
(1496624505.609285) can0 178#022101FF4E5DCE4D
(1496624505.609410) can0 213#FFFF08048001FF40
(1496624505.609660) can0 214#80000000000075A0
(1496624505.609909) can0 216#C221991382000100
(1496624505.610159) can0 217#0000000000000000
(1496624505.610410) can0 415#0010FCDD0FFF0FFF
(1496624505.610659) can0 091#FFFE7EFF7E043000
(1496624505.610910) can0 092#6FA16F860FA00104
(1496624505.611036) can0 200#02968000806E0F02
(1496624505.611285) can0 202#0CED7A7266EE0000
(1496624505.611537) can0 204#FC007D0246ED1225
(1496624505.611784) can0 4B0#A3000000A000A0E1
(1496624505.613286) can0 230#0002000000000000
(1496624505.613299) can0 25C#01F506522418825C
(1496624505.614661) can0 186#140401F400ED0400
(1496624505.614788) can0 187#DA14080000900000
(1496624505.615160) can0 18A#0020180014000000
(1496624505.615286) can0 42C#8800000054A00000
(1496624505.616785) can0 047#2000000000000000
(1496624505.618162) can0 167#72804209FFE00000
(1496624505.618175) can0 202#0CFC027260EE0000
(1496624505.618288) can0 204#C0007D0245FC122B
(1496624505.618300) can0 217#0000000000000000
(1496624505.618309) can0 25C#01F4064D2418825C
(1496624505.618663) can0 085#7C4280003DB07C7D
(1496624505.618910) can0 3CC#8000000000000000
(1496624505.620287) can0 3A8#E000A6D500000000
(1496624505.620412) can0 091#FFFE7EFB81053000
(1496624505.620661) can0 092#6FB56F870FA0EB05
(1496624505.622037) can0 078#5529801000000000
(1496624505.622164) can0 422#0000008E3C12FF00
(1496624505.622176) can0 423#ABA0000000000000
(1496624505.622286) can0 430#37015834C879F700
(1496624505.627539) can0 165#20C34B0010000000
(1496624505.627552) can0 167#72804209FFE00000
(1496624505.627910) can0 200#02968000806E0110
(1496624505.628162) can0 076#3E4BC08000000000
(1496624505.628412) can0 077#000008007FF7E1FE
(1496624505.628664) can0 07D#000DE7B018BFEFFE
(1496624505.628913) can0 082#7E089408A9804000
(1496624505.629039) can0 085#7C4280003CC07C7D
(1496624505.629412) can0 202#0CFB0A7260EE0000
(1496624505.629538) can0 204#C4007D0245FB122B
(1496624505.629787) can0 213#FFFF08048001FF40
(1496624505.630037) can0 214#80000000000074B0
(1496624505.630286) can0 216#C221991382000243
(1496624505.630537) can0 217#0000000000000000
(1496624505.630912) can0 091#FFFE7F0278063000
(1496624505.631038) can0 092#6FAD6F870FA0F206
(1496624505.631286) can0 230#0002000000000000
(1496624505.631537) can0 25C#01F606522418825C
(1496624505.631787) can0 3CA#FF80080000000000
(1496624505.632037) can0 415#0010C0EC0FFF0FFF
(1496624505.632287) can0 4B0#A3000000B00080E4
(1496624505.634913) can0 186#140401F400ED0400
(1496624505.635039) can0 187#D914080000A00000
(1496624505.635052) can0 242#00EB200BE7000001
(1496624505.637664) can0 047#2000000000000000
(1496624505.637791) can0 167#72804309FFE00000
(1496624505.637916) can0 202#0CFA127262EE0000
(1496624505.638039) can0 217#0000000000000000
(1496624505.638288) can0 204#C8007D0244FA1225
(1496624505.638566) can0 25C#01F4064D2418825C
(1496624505.638790) can0 085#7C4280003BD07C7D
(1496624505.640164) can0 3A8#E000A6D500000000
(1496624505.641666) can0 091#FFFE7EFF7B073000
(1496624505.641680) can0 092#6FA96F820FA0FA07
(1496624505.641689) can0 078#0028001000000000
(1496624505.646915) can0 167#72804309FFE00000
(1496624505.647040) can0 165#20C34B0010000000
(1496624505.648415) can0 200#02968000806E030E
(1496624505.648791) can0 076#3E4BC08000000000
(1496624505.648804) can0 077#000008017FF7F1FE
(1496624505.648814) can0 07D#000AE9C018BFEFFE
(1496624505.648822) can0 082#7E089408A9804000
(1496624505.649039) can0 085#7C4280003AE07C7D
(1496624505.649289) can0 202#0CF91A7262EE0000
(1496624505.649539) can0 204#CC007D0244F91215
(1496624505.649667) can0 213#FFFF08048001FF40
(1496624505.649915) can0 214#80000000000073C0
(1496624505.650165) can0 216#C221991382000325
(1496624505.650414) can0 217#0000000000000000
(1496624505.650790) can0 091#FFFE7F0078083000
(1496624505.650916) can0 092#6FB36F850FA0EC08
(1496624505.651164) can0 230#0002000000000000
(1496624505.651421) can0 25C#01F606532418825C
(1496624505.651668) can0 3CC#8000000000000000
(1496624505.651915) can0 415#0010C4EB0FFF0FFF
(1496624505.652289) can0 4B0#A3000000C00058E8
(1496624505.654915) can0 186#140401F400ED0400
(1496624505.655041) can0 187#D914080000A00000
(1496624505.657668) can0 047#2000000000000000
(1496624505.657794) can0 167#72804409FFE00000
(1496624505.657806) can0 202#0CF8227262EE0000
(1496624505.657918) can0 204#D0007D0244F81215
(1496624505.657930) can0 217#0000000000000000
(1496624505.658166) can0 25C#01F4064E2418825C
(1496624505.659544) can0 085#7C42800039F07C7D
(1496624505.659668) can0 3A8#E000A6D500000000
(1496624505.661041) can0 3CA#FF80080000000000
(1496624505.661292) can0 091#FFFE7F0275093000
(1496624505.661305) can0 092#6FA96F7C0FA0FE09
(1496624505.661541) can0 078#0128801000000000
(1496624505.666668) can0 42C#8800000054A00000
(1496624505.668043) can0 165#20C34B0010000000
(1496624505.668056) can0 167#72804409FFE00000
(1496624505.668293) can0 076#3E4BC08000000000
(1496624505.668306) can0 077#000008007FF7F9FC
(1496624505.668418) can0 07D#0007EBD018BFEFFE
(1496624505.668663) can0 082#7E089408A9804000
(1496624505.668912) can0 085#7C42800048007C7D
(1496624505.669163) can0 200#02968000806E050C
(1496624505.669415) can0 213#FFFF08048001FF40
(1496624505.669663) can0 214#80000000000072D0
(1496624505.669913) can0 216#C221991382000446
(1496624505.670038) can0 202#0CF72A7264EE0000
(1496624505.670288) can0 204#D4007D0241F7120A
(1496624505.670538) can0 217#0000000000000000
(1496624505.670788) can0 415#000FC8EB0FFF0FFF
(1496624505.671037) can0 04A#0200001800000000
(1496624505.671287) can0 04B#000018D8C018C000
(1496624505.671537) can0 04C#206BBF0000000000
(1496624505.671788) can0 091#FFFE7EFF780A3000
(1496624505.672038) can0 083#0020000000000000
(1496624505.672288) can0 092#6FB06F800FA0F20A
(1496624505.672537) can0 2A1#FFFFFFFF00000000
(1496624505.672787) can0 230#0002000000000000
(1496624505.673037) can0 25C#01EE06522418825C
(1496624505.673287) can0 4B0#A3000000D00038EB
(1496624505.674788) can0 186#140401F400ED0400
(1496624505.674802) can0 187#D914080000A00000
(1496624505.675038) can0 242#00EB200BE7000001
(1496624505.677664) can0 047#2000000000000000
(1496624505.677790) can0 167#72804409FFE00000
(1496624505.677803) can0 202#0CF6327264EE0000
(1496624505.677915) can0 204#D8007D0241F61200
(1496624505.677927) can0 217#0000000000000000
(1496624505.678164) can0 25C#01EA064D2418825C
(1496624505.678413) can0 455#0000000000000000
(1496624505.678668) can0 085#7C42800047107C7D
(1496624505.678919) can0 3CC#8000000000000000
(1496624505.680420) can0 3A8#E000A6D500000000
(1496624505.680544) can0 091#FFFE7F02730B3000
(1496624505.680794) can0 092#6FB46F7E0FA0EF0B
(1496624505.681044) can0 3CD#000000FFFF000000
(1496624505.681294) can0 3D8#000000008045F000
(1496624505.681543) can0 078#0128801000000000
(1496624505.686920) can0 167#72804409FFE00000
(1496624505.687168) can0 165#20C34B0010000000
(1496624505.688550) can0 200#02968000806E070A
(1496624505.688795) can0 076#3E4BC08000000000
(1496624505.688807) can0 077#000008007FF7F5FA
(1496624505.688817) can0 07D#0004EDE0183FEFFE
(1496624505.688922) can0 082#7E089408A9804000
(1496624505.689045) can0 085#7C42800046207C7D
(1496624505.689296) can0 202#0CF53A7264EE0000
(1496624505.689544) can0 204#DC007D0241F51200
(1496624505.689794) can0 213#FFFF08048001FF40
(1496624505.690044) can0 214#80000000000071E0
(1496624505.690294) can0 216#C221991382000547
(1496624505.690420) can0 217#0000000000000000
(1496624505.690670) can0 091#FFFE7F01730C3000
(1496624505.690920) can0 092#6FA46F7A0FA0020C
(1496624505.691169) can0 230#0002000000000000
(1496624505.691421) can0 25C#01EC064F2418825C
(1496624505.691670) can0 3CA#FF80080000000000
(1496624505.691920) can0 415#000FCCEA0FFF0FFF
(1496624505.692169) can0 416#9A00F30001000000
(1496624505.692420) can0 4B0#A3000000E00028EC
(1496624505.695045) can0 186#140401F400ED0400
(1496624505.695294) can0 187#D914080000A00000
(1496624505.696671) can0 047#2000000000000000
(1496624505.698172) can0 167#72804509FFE00000
(1496624505.698185) can0 202#0CF4427266EE0000
(1496624505.698195) can0 204#E0007D023FF41200
(1496624505.698202) can0 217#0000000000000000
(1496624505.698420) can0 25C#01F5064F2418825C
(1496624505.698666) can0 085#7C42800045307C7D
(1496624505.700043) can0 3A8#E000A6D500000000
(1496624505.701419) can0 091#FFFE7F01720D3000
(1496624505.701546) can0 092#6FB96F7C0FA0EA0D
(1496624505.701558) can0 078#0028001000000000
(1496624505.708045) can0 165#20C34B0010000000
(1496624505.708058) can0 167#72804709FFE00000
(1496624505.708068) can0 076#3E4BC08000000000
(1496624505.708170) can0 077#000008007FF7E5FB
(1496624505.708418) can0 07D#0002EEF0183FEFFE
(1496624505.708675) can0 082#7E089408A9804000
(1496624505.708923) can0 085#7C42800044407C7D
(1496624505.709172) can0 178#022101FD4E5DCE4D
(1496624505.709422) can0 213#FFFF08048001FF40
(1496624505.709673) can0 214#80000000000070F0
(1496624505.709798) can0 216#C221991382000639
(1496624505.710047) can0 217#0000000000000000
(1496624505.710298) can0 3CC#8000000000000000
(1496624505.710547) can0 200#02968000806E0908
(1496624505.710797) can0 415#000FD0E90FFF0FFF
(1496624505.711047) can0 091#FFFE7EFC770E3000
(1496624505.711298) can0 092#6FA86F7C0FA0FA0E
(1496624505.711550) can0 202#0CF34A7266EE0000
(1496624505.711799) can0 204#E4007D023FF31205
(1496624505.712046) can0 4B0#A1000000F00020EC
(1496624505.713423) can0 230#0002000000000000
(1496624505.713553) can0 25C#01F7064F2418825C
(1496624505.714923) can0 186#140401F400ED0400
(1496624505.715048) can0 187#D914080000A00000
(1496624505.715175) can0 18A#0020180014000000
(1496624505.715299) can0 242#00EB200BE7000001
(1496624505.715550) can0 40A#C000004515133900
(1496624505.715922) can0 42C#8800000054A00000
(1496624505.717298) can0 047#2000000000000000
(1496624505.717553) can0 167#72804809FFE00000
(1496624505.717566) can0 202#0CF2527260EE0000
(1496624505.717798) can0 204#E8007D0240F21205
(1496624505.718048) can0 217#0000000000000000
(1496624505.718298) can0 25C#01F3064F2418825C
(1496624505.718674) can0 085#7C43800041507C7E
(1496624505.720173) can0 3A8#E000A6D500000000
(1496624505.721548) can0 3CA#FF80080000000000
(1496624505.721797) can0 091#FFFE7EFD750F3000
(1496624505.721810) can0 092#6FAE6F760FA0F90F
(1496624505.721819) can0 078#5529801000000000
(1496624505.721828) can0 422#0000008E3C12FF00
(1496624505.722174) can0 423#ABA0000000000000
(1496624505.722299) can0 430#37015834C8797700
(1496624505.728683) can0 165#20C34B0010000000
(1496624505.728696) can0 167#72804809FFE00000
(1496624505.728802) can0 076#3E4BC08000000000
(1496624505.728815) can0 077#000008007FF7E9FA
(1496624505.728927) can0 07D#0002FD0017BFEFFE
(1496624505.728939) can0 082#7E089408A9804000
(1496624505.729050) can0 085#7C43800040607C7E
(1496624505.729300) can0 200#02968000806E0B06
(1496624505.729549) can0 202#0CF15A7260EE0000
(1496624505.729675) can0 213#FFFF08048001FF40
(1496624505.729925) can0 214#8000000000007F00
(1496624505.730174) can0 204#EC007D0240F11200
(1496624505.730301) can0 216#C221991382000738
(1496624505.730549) can0 217#0000000000000000
(1496624505.730800) can0 091#FFFE7EFD74103000
(1496624505.731050) can0 092#6FB16F7C0FA0EF10
(1496624505.731300) can0 415#000ED4E90FFF0FFF
(1496624505.731552) can0 4B0#A3000000000010FD
(1496624505.731800) can0 230#0002000000000000
(1496624505.732050) can0 25C#01F606502418825C
(1496624505.734677) can0 186#140401F400ED0400
(1496624505.734800) can0 187#D814080000B00000
(1496624505.737676) can0 047#2000000000000000
(1496624505.737689) can0 167#72804909FFE00000
(1496624505.737698) can0 202#0CF0627260EE0000
(1496624505.737706) can0 204#F0007D0240F01200
(1496624505.738051) can0 217#0000000000000000
(1496624505.738300) can0 25C#01F7064F2418825C
(1496624505.738677) can0 085#7C4380003F707C7E
(1496624505.738925) can0 3CC#8000000000000000
(1496624505.740304) can0 3A8#E000A6D500000000
(1496624505.741677) can0 091#FFFE7EFC74113000
(1496624505.741804) can0 092#6FA66F780FA0FD11
(1496624505.741926) can0 078#0128801000000000
(1496624505.747177) can0 165#20C34B0010000000
(1496624505.747190) can0 167#72804C09FFE00000
(1496624505.748801) can0 200#02968000806E0D04
(1496624505.748814) can0 076#3E4CC08000000000
(1496624505.748823) can0 077#000008007FF7F5F9
(1496624505.748929) can0 07D#0002FC10173FEFFE
(1496624505.748941) can0 082#7E089408A9804000
(1496624505.749053) can0 085#7C4380003E807C7E
(1496624505.749302) can0 202#0CEF6A7262EE0000
(1496624505.749557) can0 204#F4007D023FEF1200
(1496624505.749802) can0 213#FFFF08048001FF40
(1496624505.750177) can0 214#8000000000007E10
(1496624505.750303) can0 216#C22199138200082D
(1496624505.750551) can0 217#0000000000000000
(1496624505.750802) can0 230#0002000000000000
(1496624505.751052) can0 091#FFFE7EFE71123000
(1496624505.751302) can0 092#6FB46F730FA0F312
(1496624505.751553) can0 25C#01F306512418825C
(1496624505.751802) can0 350#0000000000000000
(1496624505.752052) can0 3CA#FF80080000000000
(1496624505.752301) can0 3E0#0000000080000000
(1496624505.752552) can0 415#000ED8E80FFF0FFF
(1496624505.752801) can0 4B0#A3000000100010FC
(1496624505.755557) can0 186#140401F400ED0400
(1496624505.755569) can0 187#D814080000B00000
(1496624505.755579) can0 242#00EB200BE7000001
(1496624505.756929) can0 047#2000000000000000
(1496624505.757056) can0 167#72804E09FFE00000
(1496624505.758429) can0 202#0CEE727262EE0000
(1496624505.758687) can0 204#F8007D023FEE1210
(1496624505.758699) can0 217#0000000000000000
(1496624505.758713) can0 25C#01F0064D2418825C
(1496624505.758722) can0 085#7C4380003D907C7E
(1496624505.760055) can0 3A8#E000A6D500000000
(1496624505.761430) can0 091#FFFE7EFB73133000
(1496624505.761680) can0 092#6FAC6F7D0FA0F013
(1496624505.761692) can0 078#0028001000000000
(1496624505.765558) can0 42C#8800000054A00000
(1496624505.768181) can0 167#72804F09FFE00000
(1496624505.768193) can0 165#20C34B0010000000
(1496624505.768431) can0 076#3E4CC08000000000
(1496624505.768444) can0 077#000008007FF7F9FA
(1496624505.768453) can0 07D#0001FC2016BFEFFE
(1496624505.768680) can0 082#7E089408A9804000
(1496624505.768929) can0 085#7C4380003DA07C7D
(1496624505.769180) can0 200#02968000806C0F04
(1496624505.769429) can0 202#0CED7A7264EE0000
(1496624505.769679) can0 204#FC007D0243ED1230
(1496624505.769929) can0 213#FFFF08048001FF40
(1496624505.770179) can0 214#8000000000007D20
(1496624505.770305) can0 216#C221991382000931
(1496624505.770555) can0 217#0000000000000000
(1496624505.770930) can0 04A#0200001800000000
(1496624505.771055) can0 04B#000018D8C018C000
(1496624505.771305) can0 04C#206BBF0000000000
(1496624505.771557) can0 091#FFFE7F006C143000
(1496624505.771805) can0 081#0000000000000000
(1496624505.772055) can0 092#6FA66F710FA00114
(1496624505.772305) can0 083#0020000000000000
(1496624505.772556) can0 230#0002000000000000
(1496624505.772805) can0 25C#01F506522418825C
(1496624505.773055) can0 2A1#FFFFFFFF00000000
(1496624505.773304) can0 3A7#00400A0C5F000000
(1496624505.773555) can0 33B#0000000000000000
(1496624505.773806) can0 3CC#8000000000000000
(1496624505.774054) can0 3E6#0001040880000000
(1496624505.774305) can0 415#000EDCE70FFF0FFF
(1496624505.774555) can0 4B0#A1000000200010FB
(1496624505.774805) can0 186#140401F400ED0400
(1496624505.775055) can0 187#D814080000B00000
(1496624505.777930) can0 047#2000000000000000
(1496624505.777942) can0 167#72804F09FFE00000
(1496624505.777952) can0 202#0CFC027264EE0000
(1496624505.777960) can0 204#C0007D0243FC1230
(1496624505.777967) can0 217#0000000000000000
(1496624505.778306) can0 25C#01FE064F2418825C
(1496624505.778562) can0 455#0000000000000000
(1496624505.778683) can0 085#7C4380003CB07C7D
(1496624505.780057) can0 3A8#E000A6D500000000
(1496624505.781433) can0 3CA#FF80080000000000
(1496624505.781564) can0 091#FFFE7F006B153000
(1496624505.781683) can0 092#6FB46F7D0FA0E615
(1496624505.781695) can0 078#0128801000000000
(1496624505.784307) can0 3A6#00400A0C5F000000
(1496624505.787058) can0 165#20C34B0010000000
(1496624505.787183) can0 167#72805009FFE00000
(1496624505.788684) can0 076#3E4CC08000000000
(1496624505.788811) can0 077#000008007FF7E9FB
(1496624505.788823) can0 07D#0001FB3016BFEFFE
(1496624505.788832) can0 082#7E089408A9804000
(1496624505.788934) can0 085#7C4380003BC07C7D
(1496624505.789182) can0 200#02968000806E0110
(1496624505.789432) can0 202#0CFB0A7264EE0000
(1496624505.789683) can0 213#FFFF08048001FF40
(1496624505.789931) can0 204#C4007D0243FB1230
(1496624505.790183) can0 214#8000000000007C30
(1496624505.790308) can0 216#C221991382000A34
(1496624505.790681) can0 217#0000000000000000
(1496624505.790808) can0 415#000EE0E60FFF0FFF
(1496624505.791182) can0 091#FFFE7EFC6F163000
(1496624505.791309) can0 092#6FA76F760FA0F916
(1496624505.791557) can0 416#9B00F20001000000
(1496624505.791807) can0 230#0002000000000000
(1496624505.792057) can0 25C#01FE064F2418825C
(1496624505.792307) can0 4B0#A1000000300008FB
(1496624505.795060) can0 186#140401F400ED0400
(1496624505.795072) can0 187#D814080000B00000
(1496624505.795182) can0 242#00EB200BE7000001
(1496624505.797809) can0 047#2000000000000000
(1496624505.797937) can0 167#72805009FFE00000
(1496624505.797950) can0 202#0CFA127266EE0000
(1496624505.798061) can0 204#C8007D0245FA1230
(1496624505.798073) can0 217#0000000000000000
(1496624505.798307) can0 25C#01FF064F2418825C
(1496624505.798684) can0 085#7C4380003AD07C7D
(1496624505.798932) can0 3CC#8000000000000000
(1496624505.800309) can0 3A8#E000A6D500000000
(1496624505.801811) can0 091#FFFE7EFD6D173000
(1496624505.801824) can0 092#6FB46F740FA0ED17
(1496624505.801833) can0 078#0128801000000000
(1496624505.808186) can0 165#20C34B0010000000
(1496624505.808198) can0 167#72805009FFE00000
(1496624505.808312) can0 076#3E4CC08000000000
(1496624505.808438) can0 077#000008007FF7E9FB
(1496624505.808451) can0 07D#0001FA40163FEFFE
(1496624505.808685) can0 082#7E089408A9804000
(1496624505.808934) can0 085#7C43800039E07C7D
(1496624505.809184) can0 178#022102024E5DCE4D
(1496624505.809560) can0 213#FFFF08048001FF40
(1496624505.809686) can0 214#8000000000007B40
(1496624505.809934) can0 216#C221991382000B43
(1496624505.810185) can0 217#0000000000000000
(1496624505.810434) can0 200#02968000806E030E
(1496624505.810564) can0 415#000DE4E60FFF0FFF
(1496624505.810936) can0 202#0CF91A7266EE0000
(1496624505.811060) can0 091#FFFE7EFD6C183000
(1496624505.811310) can0 092#6FA96F770FA0F418
(1496624505.811562) can0 204#CC007D0245F91230
(1496624505.811809) can0 3CA#FF80080000000000
(1496624505.812060) can0 4B0#A1000000400008FA
(1496624505.813565) can0 230#0002000000000000
(1496624505.813578) can0 25C#01FD064E2418825C
(1496624505.814936) can0 186#140401F400ED0400
(1496624505.815062) can0 187#D814080000B00000
(1496624505.815074) can0 18A#0020180014000000
(1496624505.815310) can0 3E5#0000000080000000
(1496624505.816936) can0 42C#8800000054A00000
(1496624505.816948) can0 047#2000000000000000
(1496624505.818311) can0 167#72805009FFE00000
(1496624505.818324) can0 202#0CF8227266EE0000
(1496624505.818438) can0 217#0000000000000000
(1496624505.818451) can0 204#D0007D0245F81236
(1496624505.818569) can0 25C#01F5064D2418825C
(1496624505.818810) can0 085#7C43800038F07C7D
(1496624505.820186) can0 3A8#E000A6D500000000
(1496624505.821689) can0 091#FFFE7EFC6C193000
(1496624505.821701) can0 092#6FAD6F740FA0F219
(1496624505.821711) can0 078#5429001000000000
(1496624505.821813) can0 422#0000008E3C12FF00
(1496624505.822061) can0 423#ABA0000000000000
(1496624505.822311) can0 430#37015834C8797700
(1496624505.827565) can0 167#72804F09FFE00000
(1496624505.827578) can0 165#20C34B0010000000
(1496624505.827936) can0 200#02968000806E050C
(1496624505.828187) can0 076#3E4CC08000000000
(1496624505.828313) can0 077#000008007FF7EDF8
(1496624505.828568) can0 07D#0001F95015BFEFFE
(1496624505.828812) can0 082#7E089408A9804000
(1496624505.829062) can0 085#7C43800047007C7D
(1496624505.829439) can0 202#0CF72A7260EE0000
(1496624505.829566) can0 204#D4007D0246F71230
(1496624505.829811) can0 213#FFFF08048001FF40
(1496624505.830062) can0 214#8000000000007A50
(1496624505.830312) can0 216#C221991382000C36
(1496624505.830563) can0 217#0000000000000000
(1496624505.830812) can0 230#0002000000000000
(1496624505.831062) can0 091#FFFE7F02641A3000
(1496624505.831314) can0 092#6FAE6F710FA0F31A
(1496624505.831439) can0 25C#01F606522418825C
(1496624505.831688) can0 3CC#8000000000000000
(1496624505.831937) can0 415#000DE8E50FFF0FFF
(1496624505.832313) can0 4B0#A1000000500008F9
(1496624505.834939) can0 186#140401F400ED0400
(1496624505.835064) can0 187#D714080000C00000
(1496624505.835076) can0 242#00EB200BE7000001
(1496624505.837689) can0 047#2000000000000000
(1496624505.837814) can0 167#72805009FFE00000
(1496624505.837940) can0 202#0CF6327260EE0000
(1496624505.837953) can0 204#D8007D0246F61230
(1496624505.838064) can0 217#0000000000000000
(1496624505.838314) can0 25C#01F7064D2418825C
(1496624505.838688) can0 085#7C43800046107C7D
(1496624505.840064) can0 3A8#E000A6D500000000
(1496624505.841688) can0 3CA#FF80080000000000
(1496624505.841701) can0 091#FFFE7F05601B3000
(1496624505.841710) can0 092#6FA86F740FA0F51B
(1496624505.841718) can0 078#0128801000000000
(1496624505.846940) can0 167#72805309FFE00000
(1496624505.847065) can0 165#20C34B0010000000
(1496624505.848697) can0 076#3E4CC08000000000
(1496624505.848710) can0 077#000008017FF7F1F8
(1496624505.848719) can0 07D#0001F86015BFEFFE
(1496624505.848727) can0 082#7E089408A9804000
(1496624505.848939) can0 085#7C43800045207C7D
(1496624505.849189) can0 200#02968000806E070A
(1496624505.849439) can0 202#0CF53A7262EE0000
(1496624505.849689) can0 204#DC007D0246F51240
(1496624505.849939) can0 213#FFFF08048001FF40
(1496624505.850066) can0 214#8000000000007960
(1496624505.850314) can0 216#C221991382000D30
(1496624505.850690) can0 217#0000000000000000
(1496624505.850816) can0 230#0002000000000000
(1496624505.851065) can0 091#FFFE7EFD681C3000
(1496624505.851315) can0 092#6FAE6F700FA0F21C
(1496624505.851567) can0 415#000DECE40FFF0FFF
(1496624505.851815) can0 4B0#A1000000600008F8
(1496624505.853315) can0 25C#01F6064F2418825C
(1496624505.854691) can0 186#140401F400ED0400
(1496624505.854816) can0 187#D714080000C00000
(1496624505.857441) can0 047#2000000000000000
(1496624505.857568) can0 167#72805509FFE00000
(1496624505.857580) can0 202#0CF4427262EE0000
(1496624505.857692) can0 204#E0007D0246F41236
(1496624505.858065) can0 217#0000000000000000
(1496624505.858192) can0 25C#01F7064D2418825C
(1496624505.859569) can0 085#7C43800044307C7D
(1496624505.859696) can0 3CC#8000000000000000
(1496624505.859708) can0 3A8#E000A6D500000000
(1496624505.862443) can0 091#FFFE7EFA6A1D3000
(1496624505.862456) can0 092#6FAE6F790FA0E81D
(1496624505.862465) can0 078#0128801000000000
(1496624505.865067) can0 42C#8800000054A00000
(1496624505.867694) can0 165#20C34B0010000000
(1496624505.867706) can0 167#72805809FFE00000
(1496624505.867942) can0 076#3E4CC08000000000
(1496624505.868192) can0 077#000008007FF7F1F8
(1496624505.868442) can0 07D#0001F770153FEFFE
(1496624505.868692) can0 082#7E089408A9804000
(1496624505.868942) can0 085#7C43800043407C7D
(1496624505.869192) can0 200#02968000806C090A
(1496624505.869446) can0 202#0CF34A7262EE0000
(1496624505.869693) can0 213#FFFF08048001FF40
(1496624505.869942) can0 204#E4007D0246F31236
(1496624505.870192) can0 214#8000000000007870
(1496624505.870318) can0 216#C221991382000E32
(1496624505.870567) can0 217#0000000000000000
(1496624505.870818) can0 3CA#FF80080000000000
(1496624505.871067) can0 04A#0200001800000000
(1496624505.871318) can0 04B#000018D8C018C000
(1496624505.871568) can0 04C#206BBF0000000000
(1496624505.871817) can0 083#0020000000000000
(1496624505.872068) can0 091#FFFE7F02601E3000
(1496624505.872317) can0 092#6FA66F730FA0F51E
(1496624505.872567) can0 230#0002000000000000
(1496624505.872817) can0 25C#01F406522418825C
(1496624505.873067) can0 2A1#FFFFFFFF00000000
(1496624505.873318) can0 415#000DF0E30FFF0FFF
(1496624505.873692) can0 4B0#A1000000700008F7
(1496624505.875069) can0 186#140401F400ED0400
(1496624505.875194) can0 187#D714080000C00000
(1496624505.875207) can0 242#00EB200BE7000001
(1496624505.877819) can0 047#2000000000000000
(1496624505.877946) can0 167#72805909FFE00000
(1496624505.878070) can0 202#0CF2527264EE0000
(1496624505.878082) can0 204#E8007D0246F21240
(1496624505.878091) can0 217#0000000000000000
(1496624505.878317) can0 25C#01F7064D2418825C
(1496624505.878693) can0 085#7C43800042507C7D
(1496624505.879067) can0 455#0000000000000000
(1496624505.880569) can0 3A8#E000A6D500000000
(1496624505.882069) can0 091#FFFE7EFD651F3000
(1496624505.882082) can0 092#6FB56F6B0FA0ED1F
(1496624505.882091) can0 078#0028001000000000
(1496624505.887320) can0 165#20C34B0010000000
(1496624505.887333) can0 167#72805A09FFE00000
(1496624505.888946) can0 200#02968000806C0B08
(1496624505.888959) can0 076#3E4CC08000000000
(1496624505.888968) can0 077#000008017FF7E9FA
(1496624505.888976) can0 07D#0001F68014BFEFFE
(1496624505.888984) can0 082#7E089408A9804000
(1496624505.888992) can0 085#7C43800041607C7D
(1496624505.889319) can0 202#0CF15A7264EE0000
(1496624505.889446) can0 204#EC007D0246F1122B
(1496624505.889695) can0 213#FFFF08048001FF40
(1496624505.889944) can0 214#8000000000007780
(1496624505.890195) can0 216#C221991382000F2D
(1496624505.890444) can0 217#0000000000000000
(1496624505.890696) can0 230#0002000000000000
(1496624505.890944) can0 25C#01F706502418825C
(1496624505.891195) can0 091#FFFE7EFE63203000
(1496624505.891450) can0 092#6FAA6F6E0FA0F420
(1496624505.891699) can0 3CC#8000000000000000
(1496624505.891944) can0 265#000000030D000000
(1496624505.892195) can0 415#000CF4E30FFF0FFF
(1496624505.892445) can0 416#9C00F10001000000
(1496624505.892572) can0 453#3356564B46843228
(1496624505.892820) can0 4B0#A1000000800008F6
(1496624505.895447) can0 186#140401F400ED0400
(1496624505.895695) can0 187#D714080000C00000
(1496624505.897071) can0 047#2000000000000000
(1496624505.897198) can0 167#72805A09FFE00000
(1496624505.897321) can0 202#0CF0627266EE0000
(1496624505.897570) can0 204#F0007D0245F0122B
(1496624505.897946) can0 217#0000000000000000
(1496624505.898321) can0 25C#01F1064D2418825C
(1496624505.898691) can0 085#7C43800040707C7D
(1496624505.900068) can0 3A8#E000A6D500000000
(1496624505.901442) can0 3CA#FF80080000000000
(1496624505.901570) can0 091#FFFE7EFD63213000
(1496624505.901582) can0 092#6FA76F6E0FA0F621
(1496624505.901693) can0 078#0128801000000000
(1496624505.908069) can0 165#20C34B0010000000
(1496624505.908081) can0 167#72805909FFE00000
(1496624505.908194) can0 076#3E4CC08000000000
(1496624505.908207) can0 077#000008007FF7EDF6
(1496624505.908443) can0 07D#0001F590143FEFFE
(1496624505.908690) can0 082#7E089408A9804000
(1496624505.908948) can0 085#7C4380003F807C7D
(1496624505.909197) can0 178#022101FD4E5DCE4D
(1496624505.909323) can0 213#FFFF08048001FF40
(1496624505.909577) can0 214#8000000000007690
(1496624505.909822) can0 216#C221991382001043
(1496624505.910072) can0 217#0000000000000000
(1496624505.910322) can0 415#000CF8E20FFF0FFF
(1496624505.910572) can0 4B0#A1000000900008F5
(1496624505.910822) can0 200#02968000806C0D06
(1496624505.911072) can0 202#0CEF6A7266EE0000
(1496624505.911323) can0 091#FFFE7F015D223000
(1496624505.911573) can0 092#6FAC6F6F0FA0EF22
(1496624505.911821) can0 204#F4007D0245EF1220
(1496624505.913198) can0 230#0002000000000000
(1496624505.913325) can0 25C#01F106522418825C
(1496624505.914699) can0 186#140401F400ED0400
(1496624505.914822) can0 187#D714080000C00000
(1496624505.915073) can0 18A#0020180014000000
(1496624505.915323) can0 242#00EB200BE7000001
(1496624505.916823) can0 3EB#A40410000A100000
(1496624505.916838) can0 40A#C100334641365030
(1496624505.916847) can0 047#2000000000000000
(1496624505.918447) can0 167#72805809FFE00000
(1496624505.918460) can0 202#0CEE727266EE0000
(1496624505.918469) can0 217#0000000000000000
(1496624505.918477) can0 204#F8007D0245EE1230
(1496624505.918485) can0 25C#01F5064D2418825C
(1496624505.918700) can0 085#7C4380003E907C7D
(1496624505.919073) can0 3CC#8000000000000000
(1496624505.919199) can0 42C#8800000054A00000
(1496624505.920574) can0 3A8#E000A6D500000000
(1496624505.922075) can0 091#FFFE7F025B233000
(1496624505.922088) can0 092#6FA66F700FA0F323
(1496624505.922097) can0 078#5529801000000000
(1496624505.922200) can0 422#0000008E3C12FF00
(1496624505.922213) can0 423#ABA0000000000000
(1496624505.922325) can0 430#37015834C8797700
(1496624505.927576) can0 167#72805709FFE00000
(1496624505.927589) can0 165#20C34B0010000000
(1496624505.927824) can0 200#02968000806E0F02
(1496624505.928075) can0 076#3E4CC08000000000
(1496624505.928323) can0 077#000008007FF7F1F7
(1496624505.928581) can0 07D#0001F4A013BFEFFE
(1496624505.928824) can0 082#7E089408A9804000
(1496624505.929075) can0 085#7C4380003DA07C7D
(1496624505.929325) can0 202#0CED7A7260EE0000
(1496624505.929451) can0 204#FC007D0245ED1230
(1496624505.929700) can0 213#FFFF08048001FF40
(1496624505.929950) can0 214#80000000000075A0
(1496624505.930199) can0 216#C221991382001142
(1496624505.930450) can0 217#0000000000000000
(1496624505.930699) can0 230#0002000000000000
(1496624505.930950) can0 25C#01F906522418825C
(1496624505.931200) can0 3CA#FF80080000000000
(1496624505.931450) can0 091#FFFE7EFD60243000
(1496624505.931700) can0 092#6FB46F670FA0ED24
(1496624505.931950) can0 415#000CFCE10FFF0FFF
(1496624505.932199) can0 4B0#A1000000A00008F4
(1496624505.934951) can0 186#140401F400ED0400
(1496624505.934964) can0 187#D614080000D00000
(1496624505.937577) can0 047#2000000000000000
(1496624505.937702) can0 167#72805709FFE00000
(1496624505.937826) can0 202#0CFC027260EE0000
(1496624505.938075) can0 217#0000000000000000
(1496624505.938325) can0 204#C0007D0245FC122B
(1496624505.938582) can0 25C#01F7064D2418825C
(1496624505.938826) can0 085#7C4380003CB07C7D
(1496624505.940202) can0 3A8#E000A6D500000000
(1496624505.942827) can0 091#FFFE7F015A253000
(1496624505.942953) can0 092#6FA66F6F0FA0F225
(1496624505.942965) can0 078#0028001000000000
(1496624505.946952) can0 165#20C34B0010000000
(1496624505.947201) can0 167#72805709FFE00000
(1496624505.948703) can0 200#02968000806C0112
(1496624505.948715) can0 076#3E4CC08000000000
(1496624505.948830) can0 077#000008007FF7F9F7
(1496624505.948842) can0 07D#0001F3B0133FEFFE
(1496624505.948851) can0 082#7E089408A9804000
(1496624505.949077) can0 085#7C4380003BC07C7D
(1496624505.949327) can0 202#0CFB0A7260EE0000
(1496624505.949577) can0 204#C4007D0243FB1220
(1496624505.949828) can0 213#FFFF08048001FF40
(1496624505.950077) can0 214#80000000000074B0
(1496624505.950327) can0 216#C221991382001200
(1496624505.950577) can0 217#0000000000000000
(1496624505.950829) can0 230#0002000000000000
(1496624505.951079) can0 25C#01F206502418825C
(1496624505.951327) can0 3CC#8000000000000000
(1496624505.951454) can0 415#000CC0F00FFF0FFF
(1496624505.951702) can0 091#FFFE7EFF5C263000
(1496624505.951952) can0 092#6FAA6F6B0FA0F126
(1496624505.952202) can0 4B0#A1000000B00008F3
(1496624505.954829) can0 186#140401F400ED0400
(1496624505.954954) can0 187#D614080000D00000
(1496624505.955079) can0 242#00EB200BE7000001
(1496624505.955329) can0 3B3#4048001210050002
(1496624505.956704) can0 047#2000000000000000
(1496624505.958079) can0 167#72805809FFE00000
(1496624505.958092) can0 202#0CFA127262EE0000
(1496624505.958206) can0 204#C8007D0243FA1220
(1496624505.958218) can0 217#0000000000000000
(1496624505.958227) can0 25C#01F2064D2418825C
(1496624505.959580) can0 085#7C4380003AD07C7D
(1496624505.959705) can0 3A8#E000A6D500000000
(1496624505.961079) can0 3CA#FF80080000000000
(1496624505.961330) can0 091#FFFE7F0653273000
(1496624505.961455) can0 092#6FB56F6E0FA0E227
(1496624505.961704) can0 078#0128801000000000
(1496624505.965703) can0 42C#8800000054A00000
(1496624505.968330) can0 165#20C34B0010000000
(1496624505.968586) can0 167#72805909FFE00000
(1496624505.968599) can0 076#3E4CC08000000000
(1496624505.968608) can0 077#000008007FF7EDF7
(1496624505.968616) can0 07D#0001F2C0133FEFFE
(1496624505.968705) can0 082#7E089408A9804000
(1496624505.968955) can0 085#7C43800039E07C7D
(1496624505.969330) can0 200#02968000806C0310
(1496624505.969455) can0 202#0CF91A7262EE0000
(1496624505.969704) can0 213#FFFF08048001FF40
(1496624505.969954) can0 214#80000000000073C0
(1496624505.970204) can0 204#CC007D0243F9122B
(1496624505.970330) can0 216#C221991382001300
(1496624505.970705) can0 217#0000000000000000
(1496624505.970831) can0 3A7#00400A0C5F000000
(1496624505.971080) can0 415#000CC4EF0FFF0FFF
(1496624505.971330) can0 04A#0200001800000000
(1496624505.971581) can0 04B#000018D8C018C000
(1496624505.971829) can0 04C#206BBF0000000000
(1496624505.972080) can0 083#0020000000000000
(1496624505.972329) can0 091#FFFE7F0355283000
(1496624505.972580) can0 092#6FA66F6A0FA0F428
(1496624505.972830) can0 230#0002000000000000
(1496624505.973080) can0 25C#01F506512418825C
(1496624505.973330) can0 2A1#FFFFFFFF00000000
(1496624505.973584) can0 4B0#A1000000C00008F2
(1496624505.974956) can0 186#140401F400ED0400
(1496624505.975080) can0 187#D614080000D00000
(1496624505.977706) can0 047#2000000000000000
(1496624505.977834) can0 167#72805A09FFE00000
(1496624505.977846) can0 202#0CF8227264EE0000
(1496624505.977958) can0 204#D0007D0244F81220
(1496624505.977970) can0 217#0000000000000000
(1496624505.978206) can0 25C#01FC064D2418825C
(1496624505.978456) can0 455#0000000000000000
(1496624505.978706) can0 085#7C43800038F07C7D
(1496624505.978956) can0 3CC#8000000000000000
(1496624505.980457) can0 3A8#E000A6D500000000
(1496624505.981957) can0 091#FFFE7EFC5C293000
(1496624505.981969) can0 092#6FAC6F6B0FA0EC29
(1496624505.981978) can0 078#0128801000000000
(1496624505.984582) can0 3A6#00400A0C5F000000
(1496624505.984830) can0 3C3#400F000000004000
(1496624505.987584) can0 165#20C34B0010000000
(1496624505.987596) can0 167#72805C09FFE00000
(1496624505.987957) can0 200#02968000806C050E
(1496624505.988206) can0 076#3E4CC08000000000
(1496624505.988456) can0 077#000008017FF7E9F7
(1496624505.988707) can0 07D#0001F1D012BFEFFE
(1496624505.988833) can0 082#7E089408A9804000
(1496624505.989082) can0 085#7C43800047007C7D
(1496624505.989332) can0 202#0CF72A7264EE0000
(1496624505.989585) can0 204#D4007D0244F71220
(1496624505.989832) can0 213#FFFF08048001FF40
(1496624505.990082) can0 214#80000000000072D0
(1496624505.990331) can0 216#C221991382001455
(1496624505.990582) can0 217#0000000000000000
(1496624505.990832) can0 230#0002000000000000
(1496624505.991082) can0 25C#01FC06532418825C
(1496624505.991334) can0 3CA#FF80080000000000
(1496624505.991583) can0 091#FFFE7EFB5C2A3000
(1496624505.991709) can0 092#6FAF6F6B0FA0E82A
(1496624505.991957) can0 415#0000C8FA0FFF0FFF
(1496624505.992207) can0 416#9D00F00001000000
(1496624505.992457) can0 4B0#A1000000D00008F1
(1496624505.995084) can0 186#140401F400ED0400
(1496624505.995209) can0 187#D614080000D00000
(1496624505.995222) can0 242#00EB200BE7000001
(1496624505.997835) can0 047#2000000000000000
(1496624505.998083) can0 167#72805F09FFE00000
(1496624505.998096) can0 202#0CF6327264EE0000
(1496624505.998105) can0 204#D8007D0244F6121A
(1496624505.998209) can0 217#0000000000000000
(1496624505.998334) can0 25C#01F3064D2418825C
(1496624505.998590) can0 085#7C43800046107C7D
(1496624505.999959) can0 3A8#E000A6D500000000
(1496624506.002585) can0 091#FFFE7F00552B3000
(1496624506.002597) can0 078#0028001000000000
(1496624506.002711) can0 092#6FA66F6C0FA0EF2B
(1496624506.007836) can0 165#20C34B0010000000
(1496624506.007848) can0 167#72805F09FFE00000
(1496624506.007961) can0 076#3E4CC08000000000
(1496624506.008210) can0 077#000007FF7FF7F1F6
(1496624506.008460) can0 07D#0001F0E0123FEFFE
(1496624506.008710) can0 082#7E089408A9804000
(1496624506.008960) can0 085#7C43800045207C7D
(1496624506.009209) can0 178#022101FE4E5DCE4D
(1496624506.009459) can0 213#FFFF08048001FF40
(1496624506.009710) can0 214#80000000000071E0
(1496624506.009960) can0 216#C222991382001555
(1496624506.010085) can0 217#0000000000000000
(1496624506.010335) can0 200#02968000806C070C
(1496624506.010585) can0 3CC#8000000000000000
(1496624506.010834) can0 202#0CF53A7266EE0000
(1496624506.011085) can0 204#DC007D0243F51220
(1496624506.011462) can0 415#0000CCF90FFF0FFF
(1496624506.011588) can0 4B0#A1000000E00008F0
(1496624506.011834) can0 091#FFFE7F02522C3000
(1496624506.012085) can0 092#6FB96F6B0FA0DC2C
(1496624506.012460) can0 230#0002000000000000
(1496624506.013960) can0 25C#01EE06502418825C
(1496624506.015584) can0 186#140401F400ED0400
(1496624506.015597) can0 187#D614080000D00000
(1496624506.015606) can0 18A#0020180014000000
(1496624506.015614) can0 42C#8800000054A00000
(1496624506.016961) can0 047#2000000000000000
(1496624506.018336) can0 167#72805D09FFE00000
(1496624506.018592) can0 202#0CF4427266EE0000
(1496624506.018605) can0 204#E0007D0243F41220
(1496624506.018614) can0 217#0000000000000000
(1496624506.018621) can0 25C#01F3064D2418825C
(1496624506.018629) can0 085#7C43800044307C7D
(1496624506.019962) can0 3A8#E000A6D500000000
(1496624506.021464) can0 3CA#FF80080000000000
(1496624506.021591) can0 078#5529801000000000
(1496624506.021712) can0 091#FFFE7EFE562D3000
(1496624506.021962) can0 092#6FA66F680FA0F12D
(1496624506.022211) can0 422#0000008E3C12FF00
(1496624506.022461) can0 423#ABA0000000000000
(1496624506.022711) can0 430#37015834C8797700
(1496624506.027964) can0 165#20C34B0010000000
(1496624506.027977) can0 167#72805D09FFE00000
(1496624506.027986) can0 076#3E4CC08000000000
(1496624506.028212) can0 077#000008017FF7FDF6
(1496624506.028462) can0 07D#0001EFF011BFEFFE
(1496624506.028712) can0 082#7E089408A9804000
(1496624506.028962) can0 085#7C43800043407C7D
(1496624506.029212) can0 200#02968000806C090A
(1496624506.029339) can0 202#0CF34A7260EE0000
(1496624506.029587) can0 213#FFFF08048001FF40
(1496624506.029962) can0 214#80000000000070F0
(1496624506.030087) can0 204#E4007D0240F311F5
(1496624506.030337) can0 216#C222991382001655
(1496624506.030587) can0 217#0000000000000000
(1496624506.030837) can0 415#0000D0F80FFF0FFF
(1496624506.031087) can0 4B0#A1000000F00008EF
(1496624506.032712) can0 091#FFFE7EFC572E3000
(1496624506.032725) can0 092#6FA76F690FA0EE2E
(1496624506.032734) can0 230#0002000000000000
(1496624506.032742) can0 25C#01F206512418825C
(1496624506.035339) can0 186#140401F400ED0400
(1496624506.035470) can0 187#D514080000E00000
(1496624506.035591) can0 242#00EB200BE7000001
(1496624506.036964) can0 047#2000000000000000
(1496624506.037090) can0 167#72805E09FFE00000
(1496624506.037339) can0 202#0CF2527260EE0000
(1496624506.037592) can0 204#E8007D0240F211F5
(1496624506.037963) can0 217#0000000000000000
(1496624506.038213) can0 25C#01ED064F2418825C
(1496624506.039591) can0 085#7C43800042507C7D
(1496624506.039715) can0 3CC#8000000000000000
(1496624506.039727) can0 3A8#E000A6D500000000
(1496624506.042340) can0 091#FFFE7F044D2F3000
(1496624506.042353) can0 078#0128801000000000
(1496624506.042465) can0 092#6FAE6F6B0FA0E42F
(1496624506.047591) can0 165#20C34B0010000000
(1496624506.047716) can0 167#72805F09FFE00000
(1496624506.047841) can0 200#02968000806C0B08
(1496624506.048090) can0 076#3E4CC08000000000
(1496624506.048340) can0 077#000008007FF7E9F5
(1496624506.048597) can0 07D#0001FE00113FEFFE
(1496624506.048839) can0 082#7E089408A9804000
(1496624506.049090) can0 085#7C4480003F607C7E
(1496624506.049217) can0 202#0CF15A7260EE0000
(1496624506.049465) can0 204#EC007D0240F111F5
(1496624506.049715) can0 213#FFFF08048001FF40
(1496624506.049968) can0 214#8000000000007F00
(1496624506.050215) can0 216#C222991382001755
(1496624506.050464) can0 217#0000000000000000
(1496624506.050715) can0 230#0002000000000000
(1496624506.050965) can0 25C#01ED064F2418825C
(1496624506.051340) can0 3CA#FF80080000000000
(1496624506.051472) can0 415#0000D4F70FFF0FFF
(1496624506.051720) can0 091#FFFE7EFE53303000
(1496624506.051968) can0 092#6FA46F650FA0F330
(1496624506.052214) can0 4B0#A1000000000008FE
(1496624506.054842) can0 186#140401F400ED0400
